# UVM_INFO verilog_src/questa_uvm_pkg-1.2/src/questa_uvm_pkg.sv(277) @ 0: reporter [Questa UVM] QUESTA_UVM-1.2.3
# UVM_INFO verilog_src/questa_uvm_pkg-1.2/src/questa_uvm_pkg.sv(278) @ 0: reporter [Questa UVM]  questa_uvm::init(+struct)
# UVM_INFO @ 0: reporter [RNTST] Running test axi_spi_test...
# 
# UVM_INFO C:/Users/Asus/Downloads/tb_axi_spi_full.sv(647) @ 105000: uvm_test_top.env.agent.driver [DRV_RESET] ================ READ-AFTER-RESET SWEEP ================
# UVM_INFO C:/Users/Asus/Downloads/tb_axi_spi_full.sv(648) @ 105000: uvm_test_top.env.agent.driver [DRV_RESET]   INPUT   : read RX bank at loc={0,15,31} for all 8 chips (24 reads), expect all 0
# UVM_INFO C:/Users/Asus/Downloads/tb_axi_spi_full.sv(661) @ 1545000: uvm_test_top.env.agent.driver [DRV_RESET]   OUTPUT  : checked 24 locations across all 8 chips -> PASS (no ghost data)
# UVM_INFO C:/Users/Asus/Downloads/tb_axi_spi_full.sv(664) @ 1545000: uvm_test_top.env.agent.driver [DRV_RESET] ==========================================================
# 
# UVM_INFO C:/Users/Asus/Downloads/tb_axi_spi_full.sv(473) @ 1555000: uvm_test_top.env.agent.driver [DRV_FIFO] ================ SSQ INITIAL-EMPTY CHECK ================
# UVM_INFO C:/Users/Asus/Downloads/tb_axi_spi_full.sv(474) @ 1555000: uvm_test_top.env.agent.driver [DRV_FIFO]   INPUT   : (none - sampling SSQ state immediately after reset)
# UVM_INFO C:/Users/Asus/Downloads/tb_axi_spi_full.sv(475) @ 1555000: uvm_test_top.env.agent.driver [DRV_FIFO]   OUTPUT  : empty=1  full=0  wrPtr=0  -> PASS
# UVM_INFO C:/Users/Asus/Downloads/tb_axi_spi_full.sv(481) @ 1555000: uvm_test_top.env.agent.driver [DRV_FIFO] ===========================================================
# 
# UVM_INFO C:/Users/Asus/Downloads/tb_axi_spi_full.sv(536) @ 1555000: uvm_test_top.env.agent.driver [DRV_FIFO] ================ SSQ FULL/EMPTY BACKDOOR TEST (depth=16) ================
# UVM_INFO C:/Users/Asus/Downloads/tb_axi_spi_full.sv(537) @ 1555000: uvm_test_top.env.agent.driver [DRV_FIFO]   INPUT   : 16 backdoor pushes (bypassing AXI_MANAGER), then 16 backdoor pops
# UVM_INFO C:/Users/Asus/Downloads/tb_axi_spi_full.sv(550) @ 1588000: uvm_test_top.env.agent.driver [DRV_FIFO]   OUTPUT  : after 16 backdoor pushes -> full=1 wrPtr=16  -> PASS
# UVM_INFO C:/Users/Asus/Downloads/tb_axi_spi_full.sv(563) @ 1620000: uvm_test_top.env.agent.driver [DRV_FIFO]   OUTPUT  : after draining all 16    -> empty=1 full=0 wrPtr=0  -> PASS
# UVM_INFO C:/Users/Asus/Downloads/tb_axi_spi_full.sv(571) @ 1621000: uvm_test_top.env.agent.driver [DRV_FIFO] ==========================================================================
# 
# UVM_INFO C:/Users/Asus/Downloads/tb_axi_spi_full.sv(579) @ 1621000: uvm_test_top.env.agent.driver [DRV_FIFO] ================ SSQ OVERFLOW/UNDERFLOW EDGE PROBE ================
# UVM_INFO C:/Users/Asus/Downloads/tb_axi_spi_full.sv(580) @ 1621000: uvm_test_top.env.agent.driver [DRV_FIFO]   INPUT   : fill to full (16), push 1 more; drain to empty, pop 1 more
# UVM_WARNING C:/Users/Asus/Downloads/tb_axi_spi_full.sv(605) @ 1656000: uvm_test_top.env.agent.driver [DRV_FIFO]   push-while-full probe : wrPtr advanced 16 -> 17 - SSQ.v's wrPtr!=15 guard does not stop a further push once already at wrPtr==16 (out-of-range buffer[17] access). Documented finding, not a testbench failure.
# UVM_WARNING C:/Users/Asus/Downloads/tb_axi_spi_full.sv(627) @ 1692000: uvm_test_top.env.agent.driver [DRV_FIFO]   pop-while-empty probe  : empty flag dropped to 0 after popping an already-empty queue - SSQ.v's rd_en-only branch does not check 'empty' except at the wrPtr==1 boundary case, so wrPtr can underflow. Documented finding, not a testbench failure.
# UVM_INFO C:/Users/Asus/Downloads/tb_axi_spi_full.sv(631) @ 1692000: uvm_test_top.env.agent.driver [DRV_FIFO]   This probe deliberately corrupts SSQ internal state (wrPtr underflow/overflow) to document the RTL gaps above. Issuing a full system reset now to restore a clean state before any further tests run - otherwise SPI_MANAGER would see a stale SSQ_empty=0 and try to FETCH garbage forever, hanging every test after this one.
# UVM_INFO C:/Users/Asus/Downloads/tb_axi_spi_full.sv(636) @ 1796000: uvm_test_top.env.agent.driver [DRV_FIFO] =====================================================================
# 
# UVM_INFO C:/Users/Asus/Downloads/tb_axi_spi_full.sv(673) @ 1796000: uvm_test_top.env.agent.driver [DRV_COLD] ================ COLD-START WRITE TEST ================
# UVM_INFO C:/Users/Asus/Downloads/tb_axi_spi_full.sv(674) @ 1796000: uvm_test_top.env.agent.driver [DRV_COLD]   INPUT   : chip=0 loc=1 wdata=0x600d0000 (first write issued by this testbench)
# UVM_INFO C:/Users/Asus/Downloads/tb_axi_spi_full.sv(685) @ 6001905000: uvm_test_top.env.agent.driver [DRV_COLD]   OUTPUT  : bresp=0 fetch_timeout=1 finish_timeout=1 dout=0xdead0000 din=0xdead0000 rdata=0x00000000 -> FAIL
# UVM_ERROR C:/Users/Asus/Downloads/tb_axi_spi_full.sv(689) @ 6001905000: uvm_test_top.env.agent.driver [DRV_COLD] Cold-start write path did not complete correctly
# UVM_INFO C:/Users/Asus/Downloads/tb_axi_spi_full.sv(690) @ 6001905000: uvm_test_top.env.agent.driver [DRV_COLD] =========================================================
# 
# UVM_INFO C:/Users/Asus/Downloads/tb_axi_spi_full.sv(703) @ 6001905000: uvm_test_top.env.agent.driver [DRV_ORDER] ================ FIFO SERVICE-ORDER TEST ================
# UVM_INFO C:/Users/Asus/Downloads/tb_axi_spi_full.sv(704) @ 6001905000: uvm_test_top.env.agent.driver [DRV_ORDER]   INPUT   : writes issued in chip order 3, 1, 6, 2 (zero wait between them)
# UVM_INFO C:/Users/Asus/Downloads/tb_axi_spi_full.sv(734) @ 6012185000: uvm_test_top.env.agent.driver [DRV_ORDER]   OUTPUT  : observed FETCH order 3, 1, 6, 2  -> PASS
# UVM_INFO C:/Users/Asus/Downloads/tb_axi_spi_full.sv(744) @ 22012185000: uvm_test_top.env.agent.driver [DRV_ORDER] ===========================================================
# 
# UVM_INFO C:/Users/Asus/Downloads/tb_axi_spi_full.sv(830) @ 22012185000: uvm_test_top.env.agent.driver [DRV_DECODE] ================ STATUS/DATA BOUNDARY DECODE TEST ================
# UVM_INFO C:/Users/Asus/Downloads/tb_axi_spi_full.sv(831) @ 22012185000: uvm_test_top.env.agent.driver [DRV_DECODE]   (chip_sel is plain binary 0-7, all values valid - no 'invalid address'
# UVM_INFO C:/Users/Asus/Downloads/tb_axi_spi_full.sv(832) @ 22012185000: uvm_test_top.env.agent.driver [DRV_DECODE]    code exists here. This instead confirms decode ignores the status
# UVM_INFO C:/Users/Asus/Downloads/tb_axi_spi_full.sv(833) @ 22012185000: uvm_test_top.env.agent.driver [DRV_DECODE]    address's reserved bits[7:4], per AXI_S's documented format.)
# UVM_INFO C:/Users/Asus/Downloads/tb_axi_spi_full.sv(834) @ 22012185000: uvm_test_top.env.agent.driver [DRV_DECODE]   INPUT   : Tx-status read for chip=2, once with reserved bits[7:4]=0000, once with =1011
# UVM_INFO C:/Users/Asus/Downloads/tb_axi_spi_full.sv(843) @ 22012305000: uvm_test_top.env.agent.driver [DRV_DECODE]   OUTPUT  : clean-reserved-bits=0x00000000  dirty-reserved-bits=0x00000000  -> PASS (reserved bits correctly ignored)
# UVM_INFO C:/Users/Asus/Downloads/tb_axi_spi_full.sv(849) @ 22012305000: uvm_test_top.env.agent.driver [DRV_DECODE] ====================================================================
# UVM_INFO C:/Users/Asus/Downloads/tb_axi_spi_full.sv(1222) @ 22012305000: uvm_test_top.env.agent.sequencer@@seq [axi_spi_full_seq] Starting EXHAUSTIVE sequence: 256 (full 8x32 address sweep, directed) + 16 (data-pattern corners, directed) + 30 (constrained-random regression) = 302 transactions
# 
# UVM_INFO C:/Users/Asus/Downloads/tb_axi_spi_full.sv(284) @ 22012305000: uvm_test_top.env.agent.driver [DRV] ==================== TRANSACTION #0  START ====================
# UVM_INFO C:/Users/Asus/Downloads/tb_axi_spi_full.sv(287) @ 22012305000: uvm_test_top.env.agent.driver [DRV]   INPUT   : chip=0  loc=0  wdata=0x00c0ffee
# UVM_INFO C:/Users/Asus/Downloads/tb_axi_spi_full.sv(292) @ 22012355000: uvm_test_top.env.agent.driver [DRV]   STAGE 1 : AXI WRITE          -> BRESP=0  (ACCEPTED)
# UVM_INFO C:/Users/Asus/Downloads/tb_axi_spi_full.sv(308) @ 22012385000: uvm_test_top.env.agent.driver [DRV]   STAGE 2 : TX BANK FETCH       -> dout=0x00c0ffee  expected=0x00c0ffee  MATCH
# UVM_INFO C:/Users/Asus/Downloads/tb_axi_spi_full.sv(315) @ 22015765000: uvm_test_top.env.agent.driver [DRV]   STAGE 3 : RX BANK CAPTURE     -> din=0x00c0ffee  expected=0x00c0ffee  MATCH
# UVM_INFO C:/Users/Asus/Downloads/tb_axi_spi_full.sv(322) @ 22015825000: uvm_test_top.env.agent.driver [DRV]   STAGE 4 : getRxRegStat        -> 1  (READY)
# UVM_INFO C:/Users/Asus/Downloads/tb_axi_spi_full.sv(328) @ 22015885000: uvm_test_top.env.agent.driver [DRV]   STAGE 5 : AXI READ-BACK       -> rdata=0x00c0ffee  rresp=0  MATCH
# UVM_INFO C:/Users/Asus/Downloads/tb_axi_spi_full.sv(335) @ 22015885000: uvm_test_top.env.agent.driver [DRV]   OUTPUT  : overall = PASS
# UVM_INFO C:/Users/Asus/Downloads/tb_axi_spi_full.sv(338) @ 22015885000: uvm_test_top.env.agent.driver [DRV] ==================== TRANSACTION #0  END (PASS) ====================
# 
# UVM_INFO C:/Users/Asus/Downloads/tb_axi_spi_full.sv(284) @ 22015885000: uvm_test_top.env.agent.driver [DRV] ==================== TRANSACTION #1  START ====================
# UVM_INFO C:/Users/Asus/Downloads/tb_axi_spi_full.sv(287) @ 22015885000: uvm_test_top.env.agent.driver [DRV]   INPUT   : chip=0  loc=1  wdata=0x01c0ffee
# UVM_INFO C:/Users/Asus/Downloads/tb_axi_spi_full.sv(292) @ 22015935000: uvm_test_top.env.agent.driver [DRV]   STAGE 1 : AXI WRITE          -> BRESP=0  (ACCEPTED)
# UVM_INFO C:/Users/Asus/Downloads/tb_axi_spi_full.sv(308) @ 22015965000: uvm_test_top.env.agent.driver [DRV]   STAGE 2 : TX BANK FETCH       -> dout=0x01c0ffee  expected=0x01c0ffee  MATCH
# UVM_INFO C:/Users/Asus/Downloads/tb_axi_spi_full.sv(315) @ 22019365000: uvm_test_top.env.agent.driver [DRV]   STAGE 3 : RX BANK CAPTURE     -> din=0x01c0ffee  expected=0x01c0ffee  MATCH
# UVM_INFO C:/Users/Asus/Downloads/tb_axi_spi_full.sv(322) @ 22019425000: uvm_test_top.env.agent.driver [DRV]   STAGE 4 : getRxRegStat        -> 1  (READY)
# UVM_INFO C:/Users/Asus/Downloads/tb_axi_spi_full.sv(328) @ 22019485000: uvm_test_top.env.agent.driver [DRV]   STAGE 5 : AXI READ-BACK       -> rdata=0x01c0ffee  rresp=0  MATCH
# UVM_INFO C:/Users/Asus/Downloads/tb_axi_spi_full.sv(335) @ 22019485000: uvm_test_top.env.agent.driver [DRV]   OUTPUT  : overall = PASS
# UVM_INFO C:/Users/Asus/Downloads/tb_axi_spi_full.sv(338) @ 22019485000: uvm_test_top.env.agent.driver [DRV] ==================== TRANSACTION #1  END (PASS) ====================
# 
# UVM_INFO C:/Users/Asus/Downloads/tb_axi_spi_full.sv(284) @ 22019485000: uvm_test_top.env.agent.driver [DRV] ==================== TRANSACTION #2  START ====================
# UVM_INFO C:/Users/Asus/Downloads/tb_axi_spi_full.sv(287) @ 22019485000: uvm_test_top.env.agent.driver [DRV]   INPUT   : chip=0  loc=2  wdata=0x02c0ffee
# UVM_INFO C:/Users/Asus/Downloads/tb_axi_spi_full.sv(292) @ 22019535000: uvm_test_top.env.agent.driver [DRV]   STAGE 1 : AXI WRITE          -> BRESP=0  (ACCEPTED)
# UVM_INFO C:/Users/Asus/Downloads/tb_axi_spi_full.sv(308) @ 22019565000: uvm_test_top.env.agent.driver [DRV]   STAGE 2 : TX BANK FETCH       -> dout=0x02c0ffee  expected=0x02c0ffee  MATCH
# UVM_INFO C:/Users/Asus/Downloads/tb_axi_spi_full.sv(315) @ 22022965000: uvm_test_top.env.agent.driver [DRV]   STAGE 3 : RX BANK CAPTURE     -> din=0x02c0ffee  expected=0x02c0ffee  MATCH
# UVM_INFO C:/Users/Asus/Downloads/tb_axi_spi_full.sv(322) @ 22023025000: uvm_test_top.env.agent.driver [DRV]   STAGE 4 : getRxRegStat        -> 1  (READY)
# UVM_INFO C:/Users/Asus/Downloads/tb_axi_spi_full.sv(328) @ 22023085000: uvm_test_top.env.agent.driver [DRV]   STAGE 5 : AXI READ-BACK       -> rdata=0x02c0ffee  rresp=0  MATCH
# UVM_INFO C:/Users/Asus/Downloads/tb_axi_spi_full.sv(335) @ 22023085000: uvm_test_top.env.agent.driver [DRV]   OUTPUT  : overall = PASS
# UVM_INFO C:/Users/Asus/Downloads/tb_axi_spi_full.sv(338) @ 22023085000: uvm_test_top.env.agent.driver [DRV] ==================== TRANSACTION #2  END (PASS) ====================
# 
# UVM_INFO C:/Users/Asus/Downloads/tb_axi_spi_full.sv(284) @ 22023085000: uvm_test_top.env.agent.driver [DRV] ==================== TRANSACTION #3  START ====================
# UVM_INFO C:/Users/Asus/Downloads/tb_axi_spi_full.sv(287) @ 22023085000: uvm_test_top.env.agent.driver [DRV]   INPUT   : chip=0  loc=3  wdata=0x03c0ffee
# UVM_INFO C:/Users/Asus/Downloads/tb_axi_spi_full.sv(292) @ 22023135000: uvm_test_top.env.agent.driver [DRV]   STAGE 1 : AXI WRITE          -> BRESP=0  (ACCEPTED)
# UVM_INFO C:/Users/Asus/Downloads/tb_axi_spi_full.sv(308) @ 22023165000: uvm_test_top.env.agent.driver [DRV]   STAGE 2 : TX BANK FETCH       -> dout=0x03c0ffee  expected=0x03c0ffee  MATCH
# UVM_INFO C:/Users/Asus/Downloads/tb_axi_spi_full.sv(315) @ 22026565000: uvm_test_top.env.agent.driver [DRV]   STAGE 3 : RX BANK CAPTURE     -> din=0x03c0ffee  expected=0x03c0ffee  MATCH
# UVM_INFO C:/Users/Asus/Downloads/tb_axi_spi_full.sv(322) @ 22026625000: uvm_test_top.env.agent.driver [DRV]   STAGE 4 : getRxRegStat        -> 1  (READY)
# UVM_INFO C:/Users/Asus/Downloads/tb_axi_spi_full.sv(328) @ 22026685000: uvm_test_top.env.agent.driver [DRV]   STAGE 5 : AXI READ-BACK       -> rdata=0x03c0ffee  rresp=0  MATCH
# UVM_INFO C:/Users/Asus/Downloads/tb_axi_spi_full.sv(335) @ 22026685000: uvm_test_top.env.agent.driver [DRV]   OUTPUT  : overall = PASS
# UVM_INFO C:/Users/Asus/Downloads/tb_axi_spi_full.sv(338) @ 22026685000: uvm_test_top.env.agent.driver [DRV] ==================== TRANSACTION #3  END (PASS) ====================
# 
# UVM_INFO C:/Users/Asus/Downloads/tb_axi_spi_full.sv(284) @ 22026685000: uvm_test_top.env.agent.driver [DRV] ==================== TRANSACTION #4  START ====================
# UVM_INFO C:/Users/Asus/Downloads/tb_axi_spi_full.sv(287) @ 22026685000: uvm_test_top.env.agent.driver [DRV]   INPUT   : chip=0  loc=4  wdata=0x04c0ffee
# UVM_INFO C:/Users/Asus/Downloads/tb_axi_spi_full.sv(292) @ 22026735000: uvm_test_top.env.agent.driver [DRV]   STAGE 1 : AXI WRITE          -> BRESP=0  (ACCEPTED)
# UVM_INFO C:/Users/Asus/Downloads/tb_axi_spi_full.sv(308) @ 22026765000: uvm_test_top.env.agent.driver [DRV]   STAGE 2 : TX BANK FETCH       -> dout=0x04c0ffee  expected=0x04c0ffee  MATCH
# UVM_INFO C:/Users/Asus/Downloads/tb_axi_spi_full.sv(315) @ 22030165000: uvm_test_top.env.agent.driver [DRV]   STAGE 3 : RX BANK CAPTURE     -> din=0x04c0ffee  expected=0x04c0ffee  MATCH
# UVM_INFO C:/Users/Asus/Downloads/tb_axi_spi_full.sv(322) @ 22030225000: uvm_test_top.env.agent.driver [DRV]   STAGE 4 : getRxRegStat        -> 1  (READY)
# UVM_INFO C:/Users/Asus/Downloads/tb_axi_spi_full.sv(328) @ 22030285000: uvm_test_top.env.agent.driver [DRV]   STAGE 5 : AXI READ-BACK       -> rdata=0x04c0ffee  rresp=0  MATCH
# UVM_INFO C:/Users/Asus/Downloads/tb_axi_spi_full.sv(335) @ 22030285000: uvm_test_top.env.agent.driver [DRV]   OUTPUT  : overall = PASS
# UVM_INFO C:/Users/Asus/Downloads/tb_axi_spi_full.sv(338) @ 22030285000: uvm_test_top.env.agent.driver [DRV] ==================== TRANSACTION #4  END (PASS) ====================
# 
# UVM_INFO C:/Users/Asus/Downloads/tb_axi_spi_full.sv(284) @ 22030285000: uvm_test_top.env.agent.driver [DRV] ==================== TRANSACTION #5  START ====================
# UVM_INFO C:/Users/Asus/Downloads/tb_axi_spi_full.sv(287) @ 22030285000: uvm_test_top.env.agent.driver [DRV]   INPUT   : chip=0  loc=5  wdata=0x05c0ffee
# UVM_INFO C:/Users/Asus/Downloads/tb_axi_spi_full.sv(292) @ 22030335000: uvm_test_top.env.agent.driver [DRV]   STAGE 1 : AXI WRITE          -> BRESP=0  (ACCEPTED)
# UVM_INFO C:/Users/Asus/Downloads/tb_axi_spi_full.sv(308) @ 22030365000: uvm_test_top.env.agent.driver [DRV]   STAGE 2 : TX BANK FETCH       -> dout=0x05c0ffee  expected=0x05c0ffee  MATCH
# UVM_INFO C:/Users/Asus/Downloads/tb_axi_spi_full.sv(315) @ 22033765000: uvm_test_top.env.agent.driver [DRV]   STAGE 3 : RX BANK CAPTURE     -> din=0x05c0ffee  expected=0x05c0ffee  MATCH
# UVM_INFO C:/Users/Asus/Downloads/tb_axi_spi_full.sv(322) @ 22033825000: uvm_test_top.env.agent.driver [DRV]   STAGE 4 : getRxRegStat        -> 1  (READY)
# UVM_INFO C:/Users/Asus/Downloads/tb_axi_spi_full.sv(328) @ 22033885000: uvm_test_top.env.agent.driver [DRV]   STAGE 5 : AXI READ-BACK       -> rdata=0x05c0ffee  rresp=0  MATCH
# UVM_INFO C:/Users/Asus/Downloads/tb_axi_spi_full.sv(335) @ 22033885000: uvm_test_top.env.agent.driver [DRV]   OUTPUT  : overall = PASS
# UVM_INFO C:/Users/Asus/Downloads/tb_axi_spi_full.sv(338) @ 22033885000: uvm_test_top.env.agent.driver [DRV] ==================== TRANSACTION #5  END (PASS) ====================
# 
# UVM_INFO C:/Users/Asus/Downloads/tb_axi_spi_full.sv(284) @ 22033885000: uvm_test_top.env.agent.driver [DRV] ==================== TRANSACTION #6  START ====================
# UVM_INFO C:/Users/Asus/Downloads/tb_axi_spi_full.sv(287) @ 22033885000: uvm_test_top.env.agent.driver [DRV]   INPUT   : chip=0  loc=6  wdata=0x06c0ffee
# UVM_INFO C:/Users/Asus/Downloads/tb_axi_spi_full.sv(292) @ 22033935000: uvm_test_top.env.agent.driver [DRV]   STAGE 1 : AXI WRITE          -> BRESP=0  (ACCEPTED)
# UVM_INFO C:/Users/Asus/Downloads/tb_axi_spi_full.sv(308) @ 22033965000: uvm_test_top.env.agent.driver [DRV]   STAGE 2 : TX BANK FETCH       -> dout=0x06c0ffee  expected=0x06c0ffee  MATCH
# UVM_INFO C:/Users/Asus/Downloads/tb_axi_spi_full.sv(315) @ 22037365000: uvm_test_top.env.agent.driver [DRV]   STAGE 3 : RX BANK CAPTURE     -> din=0x06c0ffee  expected=0x06c0ffee  MATCH
# UVM_INFO C:/Users/Asus/Downloads/tb_axi_spi_full.sv(322) @ 22037425000: uvm_test_top.env.agent.driver [DRV]   STAGE 4 : getRxRegStat        -> 1  (READY)
# UVM_INFO C:/Users/Asus/Downloads/tb_axi_spi_full.sv(328) @ 22037485000: uvm_test_top.env.agent.driver [DRV]   STAGE 5 : AXI READ-BACK       -> rdata=0x06c0ffee  rresp=0  MATCH
# UVM_INFO C:/Users/Asus/Downloads/tb_axi_spi_full.sv(335) @ 22037485000: uvm_test_top.env.agent.driver [DRV]   OUTPUT  : overall = PASS
# UVM_INFO C:/Users/Asus/Downloads/tb_axi_spi_full.sv(338) @ 22037485000: uvm_test_top.env.agent.driver [DRV] ==================== TRANSACTION #6  END (PASS) ====================
# 
# UVM_INFO C:/Users/Asus/Downloads/tb_axi_spi_full.sv(284) @ 22037485000: uvm_test_top.env.agent.driver [DRV] ==================== TRANSACTION #7  START ====================
# UVM_INFO C:/Users/Asus/Downloads/tb_axi_spi_full.sv(287) @ 22037485000: uvm_test_top.env.agent.driver [DRV]   INPUT   : chip=0  loc=7  wdata=0x07c0ffee
# UVM_INFO C:/Users/Asus/Downloads/tb_axi_spi_full.sv(292) @ 22037535000: uvm_test_top.env.agent.driver [DRV]   STAGE 1 : AXI WRITE          -> BRESP=0  (ACCEPTED)
# UVM_INFO C:/Users/Asus/Downloads/tb_axi_spi_full.sv(308) @ 22037565000: uvm_test_top.env.agent.driver [DRV]   STAGE 2 : TX BANK FETCH       -> dout=0x07c0ffee  expected=0x07c0ffee  MATCH
# UVM_INFO C:/Users/Asus/Downloads/tb_axi_spi_full.sv(315) @ 22040965000: uvm_test_top.env.agent.driver [DRV]   STAGE 3 : RX BANK CAPTURE     -> din=0x07c0ffee  expected=0x07c0ffee  MATCH
# UVM_INFO C:/Users/Asus/Downloads/tb_axi_spi_full.sv(322) @ 22041025000: uvm_test_top.env.agent.driver [DRV]   STAGE 4 : getRxRegStat        -> 1  (READY)
# UVM_INFO C:/Users/Asus/Downloads/tb_axi_spi_full.sv(328) @ 22041085000: uvm_test_top.env.agent.driver [DRV]   STAGE 5 : AXI READ-BACK       -> rdata=0x07c0ffee  rresp=0  MATCH
# UVM_INFO C:/Users/Asus/Downloads/tb_axi_spi_full.sv(335) @ 22041085000: uvm_test_top.env.agent.driver [DRV]   OUTPUT  : overall = PASS
# UVM_INFO C:/Users/Asus/Downloads/tb_axi_spi_full.sv(338) @ 22041085000: uvm_test_top.env.agent.driver [DRV] ==================== TRANSACTION #7  END (PASS) ====================
# 
# UVM_INFO C:/Users/Asus/Downloads/tb_axi_spi_full.sv(284) @ 22041085000: uvm_test_top.env.agent.driver [DRV] ==================== TRANSACTION #8  START ====================
# UVM_INFO C:/Users/Asus/Downloads/tb_axi_spi_full.sv(287) @ 22041085000: uvm_test_top.env.agent.driver [DRV]   INPUT   : chip=0  loc=8  wdata=0x08c0ffee
# UVM_INFO C:/Users/Asus/Downloads/tb_axi_spi_full.sv(292) @ 22041135000: uvm_test_top.env.agent.driver [DRV]   STAGE 1 : AXI WRITE          -> BRESP=0  (ACCEPTED)
# UVM_INFO C:/Users/Asus/Downloads/tb_axi_spi_full.sv(308) @ 22041165000: uvm_test_top.env.agent.driver [DRV]   STAGE 2 : TX BANK FETCH       -> dout=0x08c0ffee  expected=0x08c0ffee  MATCH
# UVM_INFO C:/Users/Asus/Downloads/tb_axi_spi_full.sv(315) @ 22044565000: uvm_test_top.env.agent.driver [DRV]   STAGE 3 : RX BANK CAPTURE     -> din=0x08c0ffee  expected=0x08c0ffee  MATCH
# UVM_INFO C:/Users/Asus/Downloads/tb_axi_spi_full.sv(322) @ 22044625000: uvm_test_top.env.agent.driver [DRV]   STAGE 4 : getRxRegStat        -> 1  (READY)
# UVM_INFO C:/Users/Asus/Downloads/tb_axi_spi_full.sv(328) @ 22044685000: uvm_test_top.env.agent.driver [DRV]   STAGE 5 : AXI READ-BACK       -> rdata=0x08c0ffee  rresp=0  MATCH
# UVM_INFO C:/Users/Asus/Downloads/tb_axi_spi_full.sv(335) @ 22044685000: uvm_test_top.env.agent.driver [DRV]   OUTPUT  : overall = PASS
# UVM_INFO C:/Users/Asus/Downloads/tb_axi_spi_full.sv(338) @ 22044685000: uvm_test_top.env.agent.driver [DRV] ==================== TRANSACTION #8  END (PASS) ====================
# 
# UVM_INFO C:/Users/Asus/Downloads/tb_axi_spi_full.sv(284) @ 22044685000: uvm_test_top.env.agent.driver [DRV] ==================== TRANSACTION #9  START ====================
# UVM_INFO C:/Users/Asus/Downloads/tb_axi_spi_full.sv(287) @ 22044685000: uvm_test_top.env.agent.driver [DRV]   INPUT   : chip=0  loc=9  wdata=0x09c0ffee
# UVM_INFO C:/Users/Asus/Downloads/tb_axi_spi_full.sv(292) @ 22044735000: uvm_test_top.env.agent.driver [DRV]   STAGE 1 : AXI WRITE          -> BRESP=0  (ACCEPTED)
# UVM_INFO C:/Users/Asus/Downloads/tb_axi_spi_full.sv(308) @ 22044765000: uvm_test_top.env.agent.driver [DRV]   STAGE 2 : TX BANK FETCH       -> dout=0x09c0ffee  expected=0x09c0ffee  MATCH
# UVM_INFO C:/Users/Asus/Downloads/tb_axi_spi_full.sv(315) @ 22048165000: uvm_test_top.env.agent.driver [DRV]   STAGE 3 : RX BANK CAPTURE     -> din=0x09c0ffee  expected=0x09c0ffee  MATCH
# UVM_INFO C:/Users/Asus/Downloads/tb_axi_spi_full.sv(322) @ 22048225000: uvm_test_top.env.agent.driver [DRV]   STAGE 4 : getRxRegStat        -> 1  (READY)
# UVM_INFO C:/Users/Asus/Downloads/tb_axi_spi_full.sv(328) @ 22048285000: uvm_test_top.env.agent.driver [DRV]   STAGE 5 : AXI READ-BACK       -> rdata=0x09c0ffee  rresp=0  MATCH
# UVM_INFO C:/Users/Asus/Downloads/tb_axi_spi_full.sv(335) @ 22048285000: uvm_test_top.env.agent.driver [DRV]   OUTPUT  : overall = PASS
# UVM_INFO C:/Users/Asus/Downloads/tb_axi_spi_full.sv(338) @ 22048285000: uvm_test_top.env.agent.driver [DRV] ==================== TRANSACTION #9  END (PASS) ====================
# 
# UVM_INFO C:/Users/Asus/Downloads/tb_axi_spi_full.sv(284) @ 22048285000: uvm_test_top.env.agent.driver [DRV] ==================== TRANSACTION #10  START ====================
# UVM_INFO C:/Users/Asus/Downloads/tb_axi_spi_full.sv(287) @ 22048285000: uvm_test_top.env.agent.driver [DRV]   INPUT   : chip=0  loc=10  wdata=0x0ac0ffee
# UVM_INFO C:/Users/Asus/Downloads/tb_axi_spi_full.sv(292) @ 22048335000: uvm_test_top.env.agent.driver [DRV]   STAGE 1 : AXI WRITE          -> BRESP=0  (ACCEPTED)
# UVM_INFO C:/Users/Asus/Downloads/tb_axi_spi_full.sv(308) @ 22048365000: uvm_test_top.env.agent.driver [DRV]   STAGE 2 : TX BANK FETCH       -> dout=0x0ac0ffee  expected=0x0ac0ffee  MATCH
# UVM_INFO C:/Users/Asus/Downloads/tb_axi_spi_full.sv(315) @ 22051765000: uvm_test_top.env.agent.driver [DRV]   STAGE 3 : RX BANK CAPTURE     -> din=0x0ac0ffee  expected=0x0ac0ffee  MATCH
# UVM_INFO C:/Users/Asus/Downloads/tb_axi_spi_full.sv(322) @ 22051825000: uvm_test_top.env.agent.driver [DRV]   STAGE 4 : getRxRegStat        -> 1  (READY)
# UVM_INFO C:/Users/Asus/Downloads/tb_axi_spi_full.sv(328) @ 22051885000: uvm_test_top.env.agent.driver [DRV]   STAGE 5 : AXI READ-BACK       -> rdata=0x0ac0ffee  rresp=0  MATCH
# UVM_INFO C:/Users/Asus/Downloads/tb_axi_spi_full.sv(335) @ 22051885000: uvm_test_top.env.agent.driver [DRV]   OUTPUT  : overall = PASS
# UVM_INFO C:/Users/Asus/Downloads/tb_axi_spi_full.sv(338) @ 22051885000: uvm_test_top.env.agent.driver [DRV] ==================== TRANSACTION #10  END (PASS) ====================
# 
# UVM_INFO C:/Users/Asus/Downloads/tb_axi_spi_full.sv(284) @ 22051885000: uvm_test_top.env.agent.driver [DRV] ==================== TRANSACTION #11  START ====================
# UVM_INFO C:/Users/Asus/Downloads/tb_axi_spi_full.sv(287) @ 22051885000: uvm_test_top.env.agent.driver [DRV]   INPUT   : chip=0  loc=11  wdata=0x0bc0ffee
# UVM_INFO C:/Users/Asus/Downloads/tb_axi_spi_full.sv(292) @ 22051935000: uvm_test_top.env.agent.driver [DRV]   STAGE 1 : AXI WRITE          -> BRESP=0  (ACCEPTED)
# UVM_INFO C:/Users/Asus/Downloads/tb_axi_spi_full.sv(308) @ 22051965000: uvm_test_top.env.agent.driver [DRV]   STAGE 2 : TX BANK FETCH       -> dout=0x0bc0ffee  expected=0x0bc0ffee  MATCH
# UVM_INFO C:/Users/Asus/Downloads/tb_axi_spi_full.sv(315) @ 22055365000: uvm_test_top.env.agent.driver [DRV]   STAGE 3 : RX BANK CAPTURE     -> din=0x0bc0ffee  expected=0x0bc0ffee  MATCH
# UVM_INFO C:/Users/Asus/Downloads/tb_axi_spi_full.sv(322) @ 22055425000: uvm_test_top.env.agent.driver [DRV]   STAGE 4 : getRxRegStat        -> 1  (READY)
# UVM_INFO C:/Users/Asus/Downloads/tb_axi_spi_full.sv(328) @ 22055485000: uvm_test_top.env.agent.driver [DRV]   STAGE 5 : AXI READ-BACK       -> rdata=0x0bc0ffee  rresp=0  MATCH
# UVM_INFO C:/Users/Asus/Downloads/tb_axi_spi_full.sv(335) @ 22055485000: uvm_test_top.env.agent.driver [DRV]   OUTPUT  : overall = PASS
# UVM_INFO C:/Users/Asus/Downloads/tb_axi_spi_full.sv(338) @ 22055485000: uvm_test_top.env.agent.driver [DRV] ==================== TRANSACTION #11  END (PASS) ====================
# 
# UVM_INFO C:/Users/Asus/Downloads/tb_axi_spi_full.sv(284) @ 22055485000: uvm_test_top.env.agent.driver [DRV] ==================== TRANSACTION #12  START ====================
# UVM_INFO C:/Users/Asus/Downloads/tb_axi_spi_full.sv(287) @ 22055485000: uvm_test_top.env.agent.driver [DRV]   INPUT   : chip=0  loc=12  wdata=0x0cc0ffee
# UVM_INFO C:/Users/Asus/Downloads/tb_axi_spi_full.sv(292) @ 22055535000: uvm_test_top.env.agent.driver [DRV]   STAGE 1 : AXI WRITE          -> BRESP=0  (ACCEPTED)
# UVM_INFO C:/Users/Asus/Downloads/tb_axi_spi_full.sv(308) @ 22055565000: uvm_test_top.env.agent.driver [DRV]   STAGE 2 : TX BANK FETCH       -> dout=0x0cc0ffee  expected=0x0cc0ffee  MATCH
# UVM_INFO C:/Users/Asus/Downloads/tb_axi_spi_full.sv(315) @ 22058965000: uvm_test_top.env.agent.driver [DRV]   STAGE 3 : RX BANK CAPTURE     -> din=0x0cc0ffee  expected=0x0cc0ffee  MATCH
# UVM_INFO C:/Users/Asus/Downloads/tb_axi_spi_full.sv(322) @ 22059025000: uvm_test_top.env.agent.driver [DRV]   STAGE 4 : getRxRegStat        -> 1  (READY)
# UVM_INFO C:/Users/Asus/Downloads/tb_axi_spi_full.sv(328) @ 22059085000: uvm_test_top.env.agent.driver [DRV]   STAGE 5 : AXI READ-BACK       -> rdata=0x0cc0ffee  rresp=0  MATCH
# UVM_INFO C:/Users/Asus/Downloads/tb_axi_spi_full.sv(335) @ 22059085000: uvm_test_top.env.agent.driver [DRV]   OUTPUT  : overall = PASS
# UVM_INFO C:/Users/Asus/Downloads/tb_axi_spi_full.sv(338) @ 22059085000: uvm_test_top.env.agent.driver [DRV] ==================== TRANSACTION #12  END (PASS) ====================
# 
# UVM_INFO C:/Users/Asus/Downloads/tb_axi_spi_full.sv(284) @ 22059085000: uvm_test_top.env.agent.driver [DRV] ==================== TRANSACTION #13  START ====================
# UVM_INFO C:/Users/Asus/Downloads/tb_axi_spi_full.sv(287) @ 22059085000: uvm_test_top.env.agent.driver [DRV]   INPUT   : chip=0  loc=13  wdata=0x0dc0ffee
# UVM_INFO C:/Users/Asus/Downloads/tb_axi_spi_full.sv(292) @ 22059135000: uvm_test_top.env.agent.driver [DRV]   STAGE 1 : AXI WRITE          -> BRESP=0  (ACCEPTED)
# UVM_INFO C:/Users/Asus/Downloads/tb_axi_spi_full.sv(308) @ 22059165000: uvm_test_top.env.agent.driver [DRV]   STAGE 2 : TX BANK FETCH       -> dout=0x0dc0ffee  expected=0x0dc0ffee  MATCH
# UVM_INFO C:/Users/Asus/Downloads/tb_axi_spi_full.sv(315) @ 22062565000: uvm_test_top.env.agent.driver [DRV]   STAGE 3 : RX BANK CAPTURE     -> din=0x0dc0ffee  expected=0x0dc0ffee  MATCH
# UVM_INFO C:/Users/Asus/Downloads/tb_axi_spi_full.sv(322) @ 22062625000: uvm_test_top.env.agent.driver [DRV]   STAGE 4 : getRxRegStat        -> 1  (READY)
# UVM_INFO C:/Users/Asus/Downloads/tb_axi_spi_full.sv(328) @ 22062685000: uvm_test_top.env.agent.driver [DRV]   STAGE 5 : AXI READ-BACK       -> rdata=0x0dc0ffee  rresp=0  MATCH
# UVM_INFO C:/Users/Asus/Downloads/tb_axi_spi_full.sv(335) @ 22062685000: uvm_test_top.env.agent.driver [DRV]   OUTPUT  : overall = PASS
# UVM_INFO C:/Users/Asus/Downloads/tb_axi_spi_full.sv(338) @ 22062685000: uvm_test_top.env.agent.driver [DRV] ==================== TRANSACTION #13  END (PASS) ====================
# 
# UVM_INFO C:/Users/Asus/Downloads/tb_axi_spi_full.sv(284) @ 22062685000: uvm_test_top.env.agent.driver [DRV] ==================== TRANSACTION #14  START ====================
# UVM_INFO C:/Users/Asus/Downloads/tb_axi_spi_full.sv(287) @ 22062685000: uvm_test_top.env.agent.driver [DRV]   INPUT   : chip=0  loc=14  wdata=0x0ec0ffee
# UVM_INFO C:/Users/Asus/Downloads/tb_axi_spi_full.sv(292) @ 22062735000: uvm_test_top.env.agent.driver [DRV]   STAGE 1 : AXI WRITE          -> BRESP=0  (ACCEPTED)
# UVM_INFO C:/Users/Asus/Downloads/tb_axi_spi_full.sv(308) @ 22062765000: uvm_test_top.env.agent.driver [DRV]   STAGE 2 : TX BANK FETCH       -> dout=0x0ec0ffee  expected=0x0ec0ffee  MATCH
# UVM_INFO C:/Users/Asus/Downloads/tb_axi_spi_full.sv(315) @ 22066165000: uvm_test_top.env.agent.driver [DRV]   STAGE 3 : RX BANK CAPTURE     -> din=0x0ec0ffee  expected=0x0ec0ffee  MATCH
# UVM_INFO C:/Users/Asus/Downloads/tb_axi_spi_full.sv(322) @ 22066225000: uvm_test_top.env.agent.driver [DRV]   STAGE 4 : getRxRegStat        -> 1  (READY)
# UVM_INFO C:/Users/Asus/Downloads/tb_axi_spi_full.sv(328) @ 22066285000: uvm_test_top.env.agent.driver [DRV]   STAGE 5 : AXI READ-BACK       -> rdata=0x0ec0ffee  rresp=0  MATCH
# UVM_INFO C:/Users/Asus/Downloads/tb_axi_spi_full.sv(335) @ 22066285000: uvm_test_top.env.agent.driver [DRV]   OUTPUT  : overall = PASS
# UVM_INFO C:/Users/Asus/Downloads/tb_axi_spi_full.sv(338) @ 22066285000: uvm_test_top.env.agent.driver [DRV] ==================== TRANSACTION #14  END (PASS) ====================
# 
# UVM_INFO C:/Users/Asus/Downloads/tb_axi_spi_full.sv(284) @ 22066285000: uvm_test_top.env.agent.driver [DRV] ==================== TRANSACTION #15  START ====================
# UVM_INFO C:/Users/Asus/Downloads/tb_axi_spi_full.sv(287) @ 22066285000: uvm_test_top.env.agent.driver [DRV]   INPUT   : chip=0  loc=15  wdata=0x0fc0ffee
# UVM_INFO C:/Users/Asus/Downloads/tb_axi_spi_full.sv(292) @ 22066335000: uvm_test_top.env.agent.driver [DRV]   STAGE 1 : AXI WRITE          -> BRESP=0  (ACCEPTED)
# UVM_INFO C:/Users/Asus/Downloads/tb_axi_spi_full.sv(308) @ 22066365000: uvm_test_top.env.agent.driver [DRV]   STAGE 2 : TX BANK FETCH       -> dout=0x0fc0ffee  expected=0x0fc0ffee  MATCH
# UVM_INFO C:/Users/Asus/Downloads/tb_axi_spi_full.sv(315) @ 22069765000: uvm_test_top.env.agent.driver [DRV]   STAGE 3 : RX BANK CAPTURE     -> din=0x0fc0ffee  expected=0x0fc0ffee  MATCH
# UVM_INFO C:/Users/Asus/Downloads/tb_axi_spi_full.sv(322) @ 22069825000: uvm_test_top.env.agent.driver [DRV]   STAGE 4 : getRxRegStat        -> 1  (READY)
# UVM_INFO C:/Users/Asus/Downloads/tb_axi_spi_full.sv(328) @ 22069885000: uvm_test_top.env.agent.driver [DRV]   STAGE 5 : AXI READ-BACK       -> rdata=0x0fc0ffee  rresp=0  MATCH
# UVM_INFO C:/Users/Asus/Downloads/tb_axi_spi_full.sv(335) @ 22069885000: uvm_test_top.env.agent.driver [DRV]   OUTPUT  : overall = PASS
# UVM_INFO C:/Users/Asus/Downloads/tb_axi_spi_full.sv(338) @ 22069885000: uvm_test_top.env.agent.driver [DRV] ==================== TRANSACTION #15  END (PASS) ====================
# 
# UVM_INFO C:/Users/Asus/Downloads/tb_axi_spi_full.sv(284) @ 22069885000: uvm_test_top.env.agent.driver [DRV] ==================== TRANSACTION #16  START ====================
# UVM_INFO C:/Users/Asus/Downloads/tb_axi_spi_full.sv(287) @ 22069885000: uvm_test_top.env.agent.driver [DRV]   INPUT   : chip=0  loc=16  wdata=0x10c0ffee
# UVM_INFO C:/Users/Asus/Downloads/tb_axi_spi_full.sv(292) @ 22069935000: uvm_test_top.env.agent.driver [DRV]   STAGE 1 : AXI WRITE          -> BRESP=0  (ACCEPTED)
# UVM_INFO C:/Users/Asus/Downloads/tb_axi_spi_full.sv(308) @ 22069965000: uvm_test_top.env.agent.driver [DRV]   STAGE 2 : TX BANK FETCH       -> dout=0x10c0ffee  expected=0x10c0ffee  MATCH
# UVM_INFO C:/Users/Asus/Downloads/tb_axi_spi_full.sv(315) @ 22073365000: uvm_test_top.env.agent.driver [DRV]   STAGE 3 : RX BANK CAPTURE     -> din=0x10c0ffee  expected=0x10c0ffee  MATCH
# UVM_INFO C:/Users/Asus/Downloads/tb_axi_spi_full.sv(322) @ 22073425000: uvm_test_top.env.agent.driver [DRV]   STAGE 4 : getRxRegStat        -> 1  (READY)
# UVM_INFO C:/Users/Asus/Downloads/tb_axi_spi_full.sv(328) @ 22073485000: uvm_test_top.env.agent.driver [DRV]   STAGE 5 : AXI READ-BACK       -> rdata=0x10c0ffee  rresp=0  MATCH
# UVM_INFO C:/Users/Asus/Downloads/tb_axi_spi_full.sv(335) @ 22073485000: uvm_test_top.env.agent.driver [DRV]   OUTPUT  : overall = PASS
# UVM_INFO C:/Users/Asus/Downloads/tb_axi_spi_full.sv(338) @ 22073485000: uvm_test_top.env.agent.driver [DRV] ==================== TRANSACTION #16  END (PASS) ====================
# 
# UVM_INFO C:/Users/Asus/Downloads/tb_axi_spi_full.sv(284) @ 22073485000: uvm_test_top.env.agent.driver [DRV] ==================== TRANSACTION #17  START ====================
# UVM_INFO C:/Users/Asus/Downloads/tb_axi_spi_full.sv(287) @ 22073485000: uvm_test_top.env.agent.driver [DRV]   INPUT   : chip=0  loc=17  wdata=0x11c0ffee
# UVM_INFO C:/Users/Asus/Downloads/tb_axi_spi_full.sv(292) @ 22073535000: uvm_test_top.env.agent.driver [DRV]   STAGE 1 : AXI WRITE          -> BRESP=0  (ACCEPTED)
# UVM_INFO C:/Users/Asus/Downloads/tb_axi_spi_full.sv(308) @ 22073565000: uvm_test_top.env.agent.driver [DRV]   STAGE 2 : TX BANK FETCH       -> dout=0x11c0ffee  expected=0x11c0ffee  MATCH
# UVM_INFO C:/Users/Asus/Downloads/tb_axi_spi_full.sv(315) @ 22076965000: uvm_test_top.env.agent.driver [DRV]   STAGE 3 : RX BANK CAPTURE     -> din=0x11c0ffee  expected=0x11c0ffee  MATCH
# UVM_INFO C:/Users/Asus/Downloads/tb_axi_spi_full.sv(322) @ 22077025000: uvm_test_top.env.agent.driver [DRV]   STAGE 4 : getRxRegStat        -> 1  (READY)
# UVM_INFO C:/Users/Asus/Downloads/tb_axi_spi_full.sv(328) @ 22077085000: uvm_test_top.env.agent.driver [DRV]   STAGE 5 : AXI READ-BACK       -> rdata=0x11c0ffee  rresp=0  MATCH
# UVM_INFO C:/Users/Asus/Downloads/tb_axi_spi_full.sv(335) @ 22077085000: uvm_test_top.env.agent.driver [DRV]   OUTPUT  : overall = PASS
# UVM_INFO C:/Users/Asus/Downloads/tb_axi_spi_full.sv(338) @ 22077085000: uvm_test_top.env.agent.driver [DRV] ==================== TRANSACTION #17  END (PASS) ====================
# 
# UVM_INFO C:/Users/Asus/Downloads/tb_axi_spi_full.sv(284) @ 22077085000: uvm_test_top.env.agent.driver [DRV] ==================== TRANSACTION #18  START ====================
# UVM_INFO C:/Users/Asus/Downloads/tb_axi_spi_full.sv(287) @ 22077085000: uvm_test_top.env.agent.driver [DRV]   INPUT   : chip=0  loc=18  wdata=0x12c0ffee
# UVM_INFO C:/Users/Asus/Downloads/tb_axi_spi_full.sv(292) @ 22077135000: uvm_test_top.env.agent.driver [DRV]   STAGE 1 : AXI WRITE          -> BRESP=0  (ACCEPTED)
# UVM_INFO C:/Users/Asus/Downloads/tb_axi_spi_full.sv(308) @ 22077165000: uvm_test_top.env.agent.driver [DRV]   STAGE 2 : TX BANK FETCH       -> dout=0x12c0ffee  expected=0x12c0ffee  MATCH
# UVM_INFO C:/Users/Asus/Downloads/tb_axi_spi_full.sv(315) @ 22080565000: uvm_test_top.env.agent.driver [DRV]   STAGE 3 : RX BANK CAPTURE     -> din=0x12c0ffee  expected=0x12c0ffee  MATCH
# UVM_INFO C:/Users/Asus/Downloads/tb_axi_spi_full.sv(322) @ 22080625000: uvm_test_top.env.agent.driver [DRV]   STAGE 4 : getRxRegStat        -> 1  (READY)
# UVM_INFO C:/Users/Asus/Downloads/tb_axi_spi_full.sv(328) @ 22080685000: uvm_test_top.env.agent.driver [DRV]   STAGE 5 : AXI READ-BACK       -> rdata=0x12c0ffee  rresp=0  MATCH
# UVM_INFO C:/Users/Asus/Downloads/tb_axi_spi_full.sv(335) @ 22080685000: uvm_test_top.env.agent.driver [DRV]   OUTPUT  : overall = PASS
# UVM_INFO C:/Users/Asus/Downloads/tb_axi_spi_full.sv(338) @ 22080685000: uvm_test_top.env.agent.driver [DRV] ==================== TRANSACTION #18  END (PASS) ====================
# 
# UVM_INFO C:/Users/Asus/Downloads/tb_axi_spi_full.sv(284) @ 22080685000: uvm_test_top.env.agent.driver [DRV] ==================== TRANSACTION #19  START ====================
# UVM_INFO C:/Users/Asus/Downloads/tb_axi_spi_full.sv(287) @ 22080685000: uvm_test_top.env.agent.driver [DRV]   INPUT   : chip=0  loc=19  wdata=0x13c0ffee
# UVM_INFO C:/Users/Asus/Downloads/tb_axi_spi_full.sv(292) @ 22080735000: uvm_test_top.env.agent.driver [DRV]   STAGE 1 : AXI WRITE          -> BRESP=0  (ACCEPTED)
# UVM_INFO C:/Users/Asus/Downloads/tb_axi_spi_full.sv(308) @ 22080765000: uvm_test_top.env.agent.driver [DRV]   STAGE 2 : TX BANK FETCH       -> dout=0x13c0ffee  expected=0x13c0ffee  MATCH
# UVM_INFO C:/Users/Asus/Downloads/tb_axi_spi_full.sv(315) @ 22084165000: uvm_test_top.env.agent.driver [DRV]   STAGE 3 : RX BANK CAPTURE     -> din=0x13c0ffee  expected=0x13c0ffee  MATCH
# UVM_INFO C:/Users/Asus/Downloads/tb_axi_spi_full.sv(322) @ 22084225000: uvm_test_top.env.agent.driver [DRV]   STAGE 4 : getRxRegStat        -> 1  (READY)
# UVM_INFO C:/Users/Asus/Downloads/tb_axi_spi_full.sv(328) @ 22084285000: uvm_test_top.env.agent.driver [DRV]   STAGE 5 : AXI READ-BACK       -> rdata=0x13c0ffee  rresp=0  MATCH
# UVM_INFO C:/Users/Asus/Downloads/tb_axi_spi_full.sv(335) @ 22084285000: uvm_test_top.env.agent.driver [DRV]   OUTPUT  : overall = PASS
# UVM_INFO C:/Users/Asus/Downloads/tb_axi_spi_full.sv(338) @ 22084285000: uvm_test_top.env.agent.driver [DRV] ==================== TRANSACTION #19  END (PASS) ====================
# 
# UVM_INFO C:/Users/Asus/Downloads/tb_axi_spi_full.sv(284) @ 22084285000: uvm_test_top.env.agent.driver [DRV] ==================== TRANSACTION #20  START ====================
# UVM_INFO C:/Users/Asus/Downloads/tb_axi_spi_full.sv(287) @ 22084285000: uvm_test_top.env.agent.driver [DRV]   INPUT   : chip=0  loc=20  wdata=0x14c0ffee
# UVM_INFO C:/Users/Asus/Downloads/tb_axi_spi_full.sv(292) @ 22084335000: uvm_test_top.env.agent.driver [DRV]   STAGE 1 : AXI WRITE          -> BRESP=0  (ACCEPTED)
# UVM_INFO C:/Users/Asus/Downloads/tb_axi_spi_full.sv(308) @ 22084365000: uvm_test_top.env.agent.driver [DRV]   STAGE 2 : TX BANK FETCH       -> dout=0x14c0ffee  expected=0x14c0ffee  MATCH
# UVM_INFO C:/Users/Asus/Downloads/tb_axi_spi_full.sv(315) @ 22087765000: uvm_test_top.env.agent.driver [DRV]   STAGE 3 : RX BANK CAPTURE     -> din=0x14c0ffee  expected=0x14c0ffee  MATCH
# UVM_INFO C:/Users/Asus/Downloads/tb_axi_spi_full.sv(322) @ 22087825000: uvm_test_top.env.agent.driver [DRV]   STAGE 4 : getRxRegStat        -> 1  (READY)
# UVM_INFO C:/Users/Asus/Downloads/tb_axi_spi_full.sv(328) @ 22087885000: uvm_test_top.env.agent.driver [DRV]   STAGE 5 : AXI READ-BACK       -> rdata=0x14c0ffee  rresp=0  MATCH
# UVM_INFO C:/Users/Asus/Downloads/tb_axi_spi_full.sv(335) @ 22087885000: uvm_test_top.env.agent.driver [DRV]   OUTPUT  : overall = PASS
# UVM_INFO C:/Users/Asus/Downloads/tb_axi_spi_full.sv(338) @ 22087885000: uvm_test_top.env.agent.driver [DRV] ==================== TRANSACTION #20  END (PASS) ====================
# 
# UVM_INFO C:/Users/Asus/Downloads/tb_axi_spi_full.sv(284) @ 22087885000: uvm_test_top.env.agent.driver [DRV] ==================== TRANSACTION #21  START ====================
# UVM_INFO C:/Users/Asus/Downloads/tb_axi_spi_full.sv(287) @ 22087885000: uvm_test_top.env.agent.driver [DRV]   INPUT   : chip=0  loc=21  wdata=0x15c0ffee
# UVM_INFO C:/Users/Asus/Downloads/tb_axi_spi_full.sv(292) @ 22087935000: uvm_test_top.env.agent.driver [DRV]   STAGE 1 : AXI WRITE          -> BRESP=0  (ACCEPTED)
# UVM_INFO C:/Users/Asus/Downloads/tb_axi_spi_full.sv(308) @ 22087965000: uvm_test_top.env.agent.driver [DRV]   STAGE 2 : TX BANK FETCH       -> dout=0x15c0ffee  expected=0x15c0ffee  MATCH
# UVM_INFO C:/Users/Asus/Downloads/tb_axi_spi_full.sv(315) @ 22091365000: uvm_test_top.env.agent.driver [DRV]   STAGE 3 : RX BANK CAPTURE     -> din=0x15c0ffee  expected=0x15c0ffee  MATCH
# UVM_INFO C:/Users/Asus/Downloads/tb_axi_spi_full.sv(322) @ 22091425000: uvm_test_top.env.agent.driver [DRV]   STAGE 4 : getRxRegStat        -> 1  (READY)
# UVM_INFO C:/Users/Asus/Downloads/tb_axi_spi_full.sv(328) @ 22091485000: uvm_test_top.env.agent.driver [DRV]   STAGE 5 : AXI READ-BACK       -> rdata=0x15c0ffee  rresp=0  MATCH
# UVM_INFO C:/Users/Asus/Downloads/tb_axi_spi_full.sv(335) @ 22091485000: uvm_test_top.env.agent.driver [DRV]   OUTPUT  : overall = PASS
# UVM_INFO C:/Users/Asus/Downloads/tb_axi_spi_full.sv(338) @ 22091485000: uvm_test_top.env.agent.driver [DRV] ==================== TRANSACTION #21  END (PASS) ====================
# 
# UVM_INFO C:/Users/Asus/Downloads/tb_axi_spi_full.sv(284) @ 22091485000: uvm_test_top.env.agent.driver [DRV] ==================== TRANSACTION #22  START ====================
# UVM_INFO C:/Users/Asus/Downloads/tb_axi_spi_full.sv(287) @ 22091485000: uvm_test_top.env.agent.driver [DRV]   INPUT   : chip=0  loc=22  wdata=0x16c0ffee
# UVM_INFO C:/Users/Asus/Downloads/tb_axi_spi_full.sv(292) @ 22091535000: uvm_test_top.env.agent.driver [DRV]   STAGE 1 : AXI WRITE          -> BRESP=0  (ACCEPTED)
# UVM_INFO C:/Users/Asus/Downloads/tb_axi_spi_full.sv(308) @ 22091565000: uvm_test_top.env.agent.driver [DRV]   STAGE 2 : TX BANK FETCH       -> dout=0x16c0ffee  expected=0x16c0ffee  MATCH
# UVM_INFO C:/Users/Asus/Downloads/tb_axi_spi_full.sv(315) @ 22094965000: uvm_test_top.env.agent.driver [DRV]   STAGE 3 : RX BANK CAPTURE     -> din=0x16c0ffee  expected=0x16c0ffee  MATCH
# UVM_INFO C:/Users/Asus/Downloads/tb_axi_spi_full.sv(322) @ 22095025000: uvm_test_top.env.agent.driver [DRV]   STAGE 4 : getRxRegStat        -> 1  (READY)
# UVM_INFO C:/Users/Asus/Downloads/tb_axi_spi_full.sv(328) @ 22095085000: uvm_test_top.env.agent.driver [DRV]   STAGE 5 : AXI READ-BACK       -> rdata=0x16c0ffee  rresp=0  MATCH
# UVM_INFO C:/Users/Asus/Downloads/tb_axi_spi_full.sv(335) @ 22095085000: uvm_test_top.env.agent.driver [DRV]   OUTPUT  : overall = PASS
# UVM_INFO C:/Users/Asus/Downloads/tb_axi_spi_full.sv(338) @ 22095085000: uvm_test_top.env.agent.driver [DRV] ==================== TRANSACTION #22  END (PASS) ====================
# 
# UVM_INFO C:/Users/Asus/Downloads/tb_axi_spi_full.sv(284) @ 22095085000: uvm_test_top.env.agent.driver [DRV] ==================== TRANSACTION #23  START ====================
# UVM_INFO C:/Users/Asus/Downloads/tb_axi_spi_full.sv(287) @ 22095085000: uvm_test_top.env.agent.driver [DRV]   INPUT   : chip=0  loc=23  wdata=0x17c0ffee
# UVM_INFO C:/Users/Asus/Downloads/tb_axi_spi_full.sv(292) @ 22095135000: uvm_test_top.env.agent.driver [DRV]   STAGE 1 : AXI WRITE          -> BRESP=0  (ACCEPTED)
# UVM_INFO C:/Users/Asus/Downloads/tb_axi_spi_full.sv(308) @ 22095165000: uvm_test_top.env.agent.driver [DRV]   STAGE 2 : TX BANK FETCH       -> dout=0x17c0ffee  expected=0x17c0ffee  MATCH
# UVM_INFO C:/Users/Asus/Downloads/tb_axi_spi_full.sv(315) @ 22098565000: uvm_test_top.env.agent.driver [DRV]   STAGE 3 : RX BANK CAPTURE     -> din=0x17c0ffee  expected=0x17c0ffee  MATCH
# UVM_INFO C:/Users/Asus/Downloads/tb_axi_spi_full.sv(322) @ 22098625000: uvm_test_top.env.agent.driver [DRV]   STAGE 4 : getRxRegStat        -> 1  (READY)
# UVM_INFO C:/Users/Asus/Downloads/tb_axi_spi_full.sv(328) @ 22098685000: uvm_test_top.env.agent.driver [DRV]   STAGE 5 : AXI READ-BACK       -> rdata=0x17c0ffee  rresp=0  MATCH
# UVM_INFO C:/Users/Asus/Downloads/tb_axi_spi_full.sv(335) @ 22098685000: uvm_test_top.env.agent.driver [DRV]   OUTPUT  : overall = PASS
# UVM_INFO C:/Users/Asus/Downloads/tb_axi_spi_full.sv(338) @ 22098685000: uvm_test_top.env.agent.driver [DRV] ==================== TRANSACTION #23  END (PASS) ====================
# 
# UVM_INFO C:/Users/Asus/Downloads/tb_axi_spi_full.sv(284) @ 22098685000: uvm_test_top.env.agent.driver [DRV] ==================== TRANSACTION #24  START ====================
# UVM_INFO C:/Users/Asus/Downloads/tb_axi_spi_full.sv(287) @ 22098685000: uvm_test_top.env.agent.driver [DRV]   INPUT   : chip=0  loc=24  wdata=0x18c0ffee
# UVM_INFO C:/Users/Asus/Downloads/tb_axi_spi_full.sv(292) @ 22098735000: uvm_test_top.env.agent.driver [DRV]   STAGE 1 : AXI WRITE          -> BRESP=0  (ACCEPTED)
# UVM_INFO C:/Users/Asus/Downloads/tb_axi_spi_full.sv(308) @ 22098765000: uvm_test_top.env.agent.driver [DRV]   STAGE 2 : TX BANK FETCH       -> dout=0x18c0ffee  expected=0x18c0ffee  MATCH
# UVM_INFO C:/Users/Asus/Downloads/tb_axi_spi_full.sv(315) @ 22102165000: uvm_test_top.env.agent.driver [DRV]   STAGE 3 : RX BANK CAPTURE     -> din=0x18c0ffee  expected=0x18c0ffee  MATCH
# UVM_INFO C:/Users/Asus/Downloads/tb_axi_spi_full.sv(322) @ 22102225000: uvm_test_top.env.agent.driver [DRV]   STAGE 4 : getRxRegStat        -> 1  (READY)
# UVM_INFO C:/Users/Asus/Downloads/tb_axi_spi_full.sv(328) @ 22102285000: uvm_test_top.env.agent.driver [DRV]   STAGE 5 : AXI READ-BACK       -> rdata=0x18c0ffee  rresp=0  MATCH
# UVM_INFO C:/Users/Asus/Downloads/tb_axi_spi_full.sv(335) @ 22102285000: uvm_test_top.env.agent.driver [DRV]   OUTPUT  : overall = PASS
# UVM_INFO C:/Users/Asus/Downloads/tb_axi_spi_full.sv(338) @ 22102285000: uvm_test_top.env.agent.driver [DRV] ==================== TRANSACTION #24  END (PASS) ====================
# 
# UVM_INFO C:/Users/Asus/Downloads/tb_axi_spi_full.sv(284) @ 22102285000: uvm_test_top.env.agent.driver [DRV] ==================== TRANSACTION #25  START ====================
# UVM_INFO C:/Users/Asus/Downloads/tb_axi_spi_full.sv(287) @ 22102285000: uvm_test_top.env.agent.driver [DRV]   INPUT   : chip=0  loc=25  wdata=0x19c0ffee
# UVM_INFO C:/Users/Asus/Downloads/tb_axi_spi_full.sv(292) @ 22102335000: uvm_test_top.env.agent.driver [DRV]   STAGE 1 : AXI WRITE          -> BRESP=0  (ACCEPTED)
# UVM_INFO C:/Users/Asus/Downloads/tb_axi_spi_full.sv(308) @ 22102365000: uvm_test_top.env.agent.driver [DRV]   STAGE 2 : TX BANK FETCH       -> dout=0x19c0ffee  expected=0x19c0ffee  MATCH
# UVM_INFO C:/Users/Asus/Downloads/tb_axi_spi_full.sv(315) @ 22105765000: uvm_test_top.env.agent.driver [DRV]   STAGE 3 : RX BANK CAPTURE     -> din=0x19c0ffee  expected=0x19c0ffee  MATCH
# UVM_INFO C:/Users/Asus/Downloads/tb_axi_spi_full.sv(322) @ 22105825000: uvm_test_top.env.agent.driver [DRV]   STAGE 4 : getRxRegStat        -> 1  (READY)
# UVM_INFO C:/Users/Asus/Downloads/tb_axi_spi_full.sv(328) @ 22105885000: uvm_test_top.env.agent.driver [DRV]   STAGE 5 : AXI READ-BACK       -> rdata=0x19c0ffee  rresp=0  MATCH
# UVM_INFO C:/Users/Asus/Downloads/tb_axi_spi_full.sv(335) @ 22105885000: uvm_test_top.env.agent.driver [DRV]   OUTPUT  : overall = PASS
# UVM_INFO C:/Users/Asus/Downloads/tb_axi_spi_full.sv(338) @ 22105885000: uvm_test_top.env.agent.driver [DRV] ==================== TRANSACTION #25  END (PASS) ====================
# 
# UVM_INFO C:/Users/Asus/Downloads/tb_axi_spi_full.sv(284) @ 22105885000: uvm_test_top.env.agent.driver [DRV] ==================== TRANSACTION #26  START ====================
# UVM_INFO C:/Users/Asus/Downloads/tb_axi_spi_full.sv(287) @ 22105885000: uvm_test_top.env.agent.driver [DRV]   INPUT   : chip=0  loc=26  wdata=0x1ac0ffee
# UVM_INFO C:/Users/Asus/Downloads/tb_axi_spi_full.sv(292) @ 22105935000: uvm_test_top.env.agent.driver [DRV]   STAGE 1 : AXI WRITE          -> BRESP=0  (ACCEPTED)
# UVM_INFO C:/Users/Asus/Downloads/tb_axi_spi_full.sv(308) @ 22105965000: uvm_test_top.env.agent.driver [DRV]   STAGE 2 : TX BANK FETCH       -> dout=0x1ac0ffee  expected=0x1ac0ffee  MATCH
# UVM_INFO C:/Users/Asus/Downloads/tb_axi_spi_full.sv(315) @ 22109365000: uvm_test_top.env.agent.driver [DRV]   STAGE 3 : RX BANK CAPTURE     -> din=0x1ac0ffee  expected=0x1ac0ffee  MATCH
# UVM_INFO C:/Users/Asus/Downloads/tb_axi_spi_full.sv(322) @ 22109425000: uvm_test_top.env.agent.driver [DRV]   STAGE 4 : getRxRegStat        -> 1  (READY)
# UVM_INFO C:/Users/Asus/Downloads/tb_axi_spi_full.sv(328) @ 22109485000: uvm_test_top.env.agent.driver [DRV]   STAGE 5 : AXI READ-BACK       -> rdata=0x1ac0ffee  rresp=0  MATCH
# UVM_INFO C:/Users/Asus/Downloads/tb_axi_spi_full.sv(335) @ 22109485000: uvm_test_top.env.agent.driver [DRV]   OUTPUT  : overall = PASS
# UVM_INFO C:/Users/Asus/Downloads/tb_axi_spi_full.sv(338) @ 22109485000: uvm_test_top.env.agent.driver [DRV] ==================== TRANSACTION #26  END (PASS) ====================
# 
# UVM_INFO C:/Users/Asus/Downloads/tb_axi_spi_full.sv(284) @ 22109485000: uvm_test_top.env.agent.driver [DRV] ==================== TRANSACTION #27  START ====================
# UVM_INFO C:/Users/Asus/Downloads/tb_axi_spi_full.sv(287) @ 22109485000: uvm_test_top.env.agent.driver [DRV]   INPUT   : chip=0  loc=27  wdata=0x1bc0ffee
# UVM_INFO C:/Users/Asus/Downloads/tb_axi_spi_full.sv(292) @ 22109535000: uvm_test_top.env.agent.driver [DRV]   STAGE 1 : AXI WRITE          -> BRESP=0  (ACCEPTED)
# UVM_INFO C:/Users/Asus/Downloads/tb_axi_spi_full.sv(308) @ 22109565000: uvm_test_top.env.agent.driver [DRV]   STAGE 2 : TX BANK FETCH       -> dout=0x1bc0ffee  expected=0x1bc0ffee  MATCH
# UVM_INFO C:/Users/Asus/Downloads/tb_axi_spi_full.sv(315) @ 22112965000: uvm_test_top.env.agent.driver [DRV]   STAGE 3 : RX BANK CAPTURE     -> din=0x1bc0ffee  expected=0x1bc0ffee  MATCH
# UVM_INFO C:/Users/Asus/Downloads/tb_axi_spi_full.sv(322) @ 22113025000: uvm_test_top.env.agent.driver [DRV]   STAGE 4 : getRxRegStat        -> 1  (READY)
# UVM_INFO C:/Users/Asus/Downloads/tb_axi_spi_full.sv(328) @ 22113085000: uvm_test_top.env.agent.driver [DRV]   STAGE 5 : AXI READ-BACK       -> rdata=0x1bc0ffee  rresp=0  MATCH
# UVM_INFO C:/Users/Asus/Downloads/tb_axi_spi_full.sv(335) @ 22113085000: uvm_test_top.env.agent.driver [DRV]   OUTPUT  : overall = PASS
# UVM_INFO C:/Users/Asus/Downloads/tb_axi_spi_full.sv(338) @ 22113085000: uvm_test_top.env.agent.driver [DRV] ==================== TRANSACTION #27  END (PASS) ====================
# 
# UVM_INFO C:/Users/Asus/Downloads/tb_axi_spi_full.sv(284) @ 22113085000: uvm_test_top.env.agent.driver [DRV] ==================== TRANSACTION #28  START ====================
# UVM_INFO C:/Users/Asus/Downloads/tb_axi_spi_full.sv(287) @ 22113085000: uvm_test_top.env.agent.driver [DRV]   INPUT   : chip=0  loc=28  wdata=0x1cc0ffee
# UVM_INFO C:/Users/Asus/Downloads/tb_axi_spi_full.sv(292) @ 22113135000: uvm_test_top.env.agent.driver [DRV]   STAGE 1 : AXI WRITE          -> BRESP=0  (ACCEPTED)
# UVM_INFO C:/Users/Asus/Downloads/tb_axi_spi_full.sv(308) @ 22113165000: uvm_test_top.env.agent.driver [DRV]   STAGE 2 : TX BANK FETCH       -> dout=0x1cc0ffee  expected=0x1cc0ffee  MATCH
# UVM_INFO C:/Users/Asus/Downloads/tb_axi_spi_full.sv(315) @ 22116565000: uvm_test_top.env.agent.driver [DRV]   STAGE 3 : RX BANK CAPTURE     -> din=0x1cc0ffee  expected=0x1cc0ffee  MATCH
# UVM_INFO C:/Users/Asus/Downloads/tb_axi_spi_full.sv(322) @ 22116625000: uvm_test_top.env.agent.driver [DRV]   STAGE 4 : getRxRegStat        -> 1  (READY)
# UVM_INFO C:/Users/Asus/Downloads/tb_axi_spi_full.sv(328) @ 22116685000: uvm_test_top.env.agent.driver [DRV]   STAGE 5 : AXI READ-BACK       -> rdata=0x1cc0ffee  rresp=0  MATCH
# UVM_INFO C:/Users/Asus/Downloads/tb_axi_spi_full.sv(335) @ 22116685000: uvm_test_top.env.agent.driver [DRV]   OUTPUT  : overall = PASS
# UVM_INFO C:/Users/Asus/Downloads/tb_axi_spi_full.sv(338) @ 22116685000: uvm_test_top.env.agent.driver [DRV] ==================== TRANSACTION #28  END (PASS) ====================
# 
# UVM_INFO C:/Users/Asus/Downloads/tb_axi_spi_full.sv(284) @ 22116685000: uvm_test_top.env.agent.driver [DRV] ==================== TRANSACTION #29  START ====================
# UVM_INFO C:/Users/Asus/Downloads/tb_axi_spi_full.sv(287) @ 22116685000: uvm_test_top.env.agent.driver [DRV]   INPUT   : chip=0  loc=29  wdata=0x1dc0ffee
# UVM_INFO C:/Users/Asus/Downloads/tb_axi_spi_full.sv(292) @ 22116735000: uvm_test_top.env.agent.driver [DRV]   STAGE 1 : AXI WRITE          -> BRESP=0  (ACCEPTED)
# UVM_INFO C:/Users/Asus/Downloads/tb_axi_spi_full.sv(308) @ 22116765000: uvm_test_top.env.agent.driver [DRV]   STAGE 2 : TX BANK FETCH       -> dout=0x1dc0ffee  expected=0x1dc0ffee  MATCH
# UVM_INFO C:/Users/Asus/Downloads/tb_axi_spi_full.sv(315) @ 22120165000: uvm_test_top.env.agent.driver [DRV]   STAGE 3 : RX BANK CAPTURE     -> din=0x1dc0ffee  expected=0x1dc0ffee  MATCH
# UVM_INFO C:/Users/Asus/Downloads/tb_axi_spi_full.sv(322) @ 22120225000: uvm_test_top.env.agent.driver [DRV]   STAGE 4 : getRxRegStat        -> 1  (READY)
# UVM_INFO C:/Users/Asus/Downloads/tb_axi_spi_full.sv(328) @ 22120285000: uvm_test_top.env.agent.driver [DRV]   STAGE 5 : AXI READ-BACK       -> rdata=0x1dc0ffee  rresp=0  MATCH
# UVM_INFO C:/Users/Asus/Downloads/tb_axi_spi_full.sv(335) @ 22120285000: uvm_test_top.env.agent.driver [DRV]   OUTPUT  : overall = PASS
# UVM_INFO C:/Users/Asus/Downloads/tb_axi_spi_full.sv(338) @ 22120285000: uvm_test_top.env.agent.driver [DRV] ==================== TRANSACTION #29  END (PASS) ====================
# 
# UVM_INFO C:/Users/Asus/Downloads/tb_axi_spi_full.sv(284) @ 22120285000: uvm_test_top.env.agent.driver [DRV] ==================== TRANSACTION #30  START ====================
# UVM_INFO C:/Users/Asus/Downloads/tb_axi_spi_full.sv(287) @ 22120285000: uvm_test_top.env.agent.driver [DRV]   INPUT   : chip=0  loc=30  wdata=0x1ec0ffee
# UVM_INFO C:/Users/Asus/Downloads/tb_axi_spi_full.sv(292) @ 22120335000: uvm_test_top.env.agent.driver [DRV]   STAGE 1 : AXI WRITE          -> BRESP=0  (ACCEPTED)
# UVM_INFO C:/Users/Asus/Downloads/tb_axi_spi_full.sv(308) @ 22120365000: uvm_test_top.env.agent.driver [DRV]   STAGE 2 : TX BANK FETCH       -> dout=0x1ec0ffee  expected=0x1ec0ffee  MATCH
# UVM_INFO C:/Users/Asus/Downloads/tb_axi_spi_full.sv(315) @ 22123765000: uvm_test_top.env.agent.driver [DRV]   STAGE 3 : RX BANK CAPTURE     -> din=0x1ec0ffee  expected=0x1ec0ffee  MATCH
# UVM_INFO C:/Users/Asus/Downloads/tb_axi_spi_full.sv(322) @ 22123825000: uvm_test_top.env.agent.driver [DRV]   STAGE 4 : getRxRegStat        -> 1  (READY)
# UVM_INFO C:/Users/Asus/Downloads/tb_axi_spi_full.sv(328) @ 22123885000: uvm_test_top.env.agent.driver [DRV]   STAGE 5 : AXI READ-BACK       -> rdata=0x1ec0ffee  rresp=0  MATCH
# UVM_INFO C:/Users/Asus/Downloads/tb_axi_spi_full.sv(335) @ 22123885000: uvm_test_top.env.agent.driver [DRV]   OUTPUT  : overall = PASS
# UVM_INFO C:/Users/Asus/Downloads/tb_axi_spi_full.sv(338) @ 22123885000: uvm_test_top.env.agent.driver [DRV] ==================== TRANSACTION #30  END (PASS) ====================
# 
# UVM_INFO C:/Users/Asus/Downloads/tb_axi_spi_full.sv(284) @ 22123885000: uvm_test_top.env.agent.driver [DRV] ==================== TRANSACTION #31  START ====================
# UVM_INFO C:/Users/Asus/Downloads/tb_axi_spi_full.sv(287) @ 22123885000: uvm_test_top.env.agent.driver [DRV]   INPUT   : chip=0  loc=31  wdata=0x1fc0ffee
# UVM_INFO C:/Users/Asus/Downloads/tb_axi_spi_full.sv(292) @ 22123935000: uvm_test_top.env.agent.driver [DRV]   STAGE 1 : AXI WRITE          -> BRESP=0  (ACCEPTED)
# UVM_INFO C:/Users/Asus/Downloads/tb_axi_spi_full.sv(308) @ 22123965000: uvm_test_top.env.agent.driver [DRV]   STAGE 2 : TX BANK FETCH       -> dout=0x1fc0ffee  expected=0x1fc0ffee  MATCH
# UVM_INFO C:/Users/Asus/Downloads/tb_axi_spi_full.sv(315) @ 22127365000: uvm_test_top.env.agent.driver [DRV]   STAGE 3 : RX BANK CAPTURE     -> din=0x1fc0ffee  expected=0x1fc0ffee  MATCH
# UVM_INFO C:/Users/Asus/Downloads/tb_axi_spi_full.sv(322) @ 22127425000: uvm_test_top.env.agent.driver [DRV]   STAGE 4 : getRxRegStat        -> 1  (READY)
# UVM_INFO C:/Users/Asus/Downloads/tb_axi_spi_full.sv(328) @ 22127485000: uvm_test_top.env.agent.driver [DRV]   STAGE 5 : AXI READ-BACK       -> rdata=0x1fc0ffee  rresp=0  MATCH
# UVM_INFO C:/Users/Asus/Downloads/tb_axi_spi_full.sv(335) @ 22127485000: uvm_test_top.env.agent.driver [DRV]   OUTPUT  : overall = PASS
# UVM_INFO C:/Users/Asus/Downloads/tb_axi_spi_full.sv(338) @ 22127485000: uvm_test_top.env.agent.driver [DRV] ==================== TRANSACTION #31  END (PASS) ====================
# 
# UVM_INFO C:/Users/Asus/Downloads/tb_axi_spi_full.sv(284) @ 22127485000: uvm_test_top.env.agent.driver [DRV] ==================== TRANSACTION #32  START ====================
# UVM_INFO C:/Users/Asus/Downloads/tb_axi_spi_full.sv(287) @ 22127485000: uvm_test_top.env.agent.driver [DRV]   INPUT   : chip=1  loc=0  wdata=0x20c0ffee
# UVM_INFO C:/Users/Asus/Downloads/tb_axi_spi_full.sv(292) @ 22127535000: uvm_test_top.env.agent.driver [DRV]   STAGE 1 : AXI WRITE          -> BRESP=0  (ACCEPTED)
# UVM_INFO C:/Users/Asus/Downloads/tb_axi_spi_full.sv(308) @ 22127565000: uvm_test_top.env.agent.driver [DRV]   STAGE 2 : TX BANK FETCH       -> dout=0x20c0ffee  expected=0x20c0ffee  MATCH
# UVM_INFO C:/Users/Asus/Downloads/tb_axi_spi_full.sv(315) @ 22130965000: uvm_test_top.env.agent.driver [DRV]   STAGE 3 : RX BANK CAPTURE     -> din=0x20c0ffee  expected=0x20c0ffee  MATCH
# UVM_INFO C:/Users/Asus/Downloads/tb_axi_spi_full.sv(322) @ 22131025000: uvm_test_top.env.agent.driver [DRV]   STAGE 4 : getRxRegStat        -> 1  (READY)
# UVM_INFO C:/Users/Asus/Downloads/tb_axi_spi_full.sv(328) @ 22131085000: uvm_test_top.env.agent.driver [DRV]   STAGE 5 : AXI READ-BACK       -> rdata=0x20c0ffee  rresp=0  MATCH
# UVM_INFO C:/Users/Asus/Downloads/tb_axi_spi_full.sv(335) @ 22131085000: uvm_test_top.env.agent.driver [DRV]   OUTPUT  : overall = PASS
# UVM_INFO C:/Users/Asus/Downloads/tb_axi_spi_full.sv(338) @ 22131085000: uvm_test_top.env.agent.driver [DRV] ==================== TRANSACTION #32  END (PASS) ====================
# 
# UVM_INFO C:/Users/Asus/Downloads/tb_axi_spi_full.sv(284) @ 22131085000: uvm_test_top.env.agent.driver [DRV] ==================== TRANSACTION #33  START ====================
# UVM_INFO C:/Users/Asus/Downloads/tb_axi_spi_full.sv(287) @ 22131085000: uvm_test_top.env.agent.driver [DRV]   INPUT   : chip=1  loc=1  wdata=0x21c0ffee
# UVM_INFO C:/Users/Asus/Downloads/tb_axi_spi_full.sv(292) @ 22131135000: uvm_test_top.env.agent.driver [DRV]   STAGE 1 : AXI WRITE          -> BRESP=0  (ACCEPTED)
# UVM_INFO C:/Users/Asus/Downloads/tb_axi_spi_full.sv(308) @ 22131165000: uvm_test_top.env.agent.driver [DRV]   STAGE 2 : TX BANK FETCH       -> dout=0x21c0ffee  expected=0x21c0ffee  MATCH
# UVM_INFO C:/Users/Asus/Downloads/tb_axi_spi_full.sv(315) @ 22134565000: uvm_test_top.env.agent.driver [DRV]   STAGE 3 : RX BANK CAPTURE     -> din=0x21c0ffee  expected=0x21c0ffee  MATCH
# UVM_INFO C:/Users/Asus/Downloads/tb_axi_spi_full.sv(322) @ 22134625000: uvm_test_top.env.agent.driver [DRV]   STAGE 4 : getRxRegStat        -> 1  (READY)
# UVM_INFO C:/Users/Asus/Downloads/tb_axi_spi_full.sv(328) @ 22134685000: uvm_test_top.env.agent.driver [DRV]   STAGE 5 : AXI READ-BACK       -> rdata=0x21c0ffee  rresp=0  MATCH
# UVM_INFO C:/Users/Asus/Downloads/tb_axi_spi_full.sv(335) @ 22134685000: uvm_test_top.env.agent.driver [DRV]   OUTPUT  : overall = PASS
# UVM_INFO C:/Users/Asus/Downloads/tb_axi_spi_full.sv(338) @ 22134685000: uvm_test_top.env.agent.driver [DRV] ==================== TRANSACTION #33  END (PASS) ====================
# 
# UVM_INFO C:/Users/Asus/Downloads/tb_axi_spi_full.sv(284) @ 22134685000: uvm_test_top.env.agent.driver [DRV] ==================== TRANSACTION #34  START ====================
# UVM_INFO C:/Users/Asus/Downloads/tb_axi_spi_full.sv(287) @ 22134685000: uvm_test_top.env.agent.driver [DRV]   INPUT   : chip=1  loc=2  wdata=0x22c0ffee
# UVM_INFO C:/Users/Asus/Downloads/tb_axi_spi_full.sv(292) @ 22134735000: uvm_test_top.env.agent.driver [DRV]   STAGE 1 : AXI WRITE          -> BRESP=0  (ACCEPTED)
# UVM_INFO C:/Users/Asus/Downloads/tb_axi_spi_full.sv(308) @ 22134765000: uvm_test_top.env.agent.driver [DRV]   STAGE 2 : TX BANK FETCH       -> dout=0x22c0ffee  expected=0x22c0ffee  MATCH
# UVM_INFO C:/Users/Asus/Downloads/tb_axi_spi_full.sv(315) @ 22138165000: uvm_test_top.env.agent.driver [DRV]   STAGE 3 : RX BANK CAPTURE     -> din=0x22c0ffee  expected=0x22c0ffee  MATCH
# UVM_INFO C:/Users/Asus/Downloads/tb_axi_spi_full.sv(322) @ 22138225000: uvm_test_top.env.agent.driver [DRV]   STAGE 4 : getRxRegStat        -> 1  (READY)
# UVM_INFO C:/Users/Asus/Downloads/tb_axi_spi_full.sv(328) @ 22138285000: uvm_test_top.env.agent.driver [DRV]   STAGE 5 : AXI READ-BACK       -> rdata=0x22c0ffee  rresp=0  MATCH
# UVM_INFO C:/Users/Asus/Downloads/tb_axi_spi_full.sv(335) @ 22138285000: uvm_test_top.env.agent.driver [DRV]   OUTPUT  : overall = PASS
# UVM_INFO C:/Users/Asus/Downloads/tb_axi_spi_full.sv(338) @ 22138285000: uvm_test_top.env.agent.driver [DRV] ==================== TRANSACTION #34  END (PASS) ====================
# 
# UVM_INFO C:/Users/Asus/Downloads/tb_axi_spi_full.sv(284) @ 22138285000: uvm_test_top.env.agent.driver [DRV] ==================== TRANSACTION #35  START ====================
# UVM_INFO C:/Users/Asus/Downloads/tb_axi_spi_full.sv(287) @ 22138285000: uvm_test_top.env.agent.driver [DRV]   INPUT   : chip=1  loc=3  wdata=0x23c0ffee
# UVM_INFO C:/Users/Asus/Downloads/tb_axi_spi_full.sv(292) @ 22138335000: uvm_test_top.env.agent.driver [DRV]   STAGE 1 : AXI WRITE          -> BRESP=0  (ACCEPTED)
# UVM_INFO C:/Users/Asus/Downloads/tb_axi_spi_full.sv(308) @ 22138365000: uvm_test_top.env.agent.driver [DRV]   STAGE 2 : TX BANK FETCH       -> dout=0x23c0ffee  expected=0x23c0ffee  MATCH
# UVM_INFO C:/Users/Asus/Downloads/tb_axi_spi_full.sv(315) @ 22141765000: uvm_test_top.env.agent.driver [DRV]   STAGE 3 : RX BANK CAPTURE     -> din=0x23c0ffee  expected=0x23c0ffee  MATCH
# UVM_INFO C:/Users/Asus/Downloads/tb_axi_spi_full.sv(322) @ 22141825000: uvm_test_top.env.agent.driver [DRV]   STAGE 4 : getRxRegStat        -> 1  (READY)
# UVM_INFO C:/Users/Asus/Downloads/tb_axi_spi_full.sv(328) @ 22141885000: uvm_test_top.env.agent.driver [DRV]   STAGE 5 : AXI READ-BACK       -> rdata=0x23c0ffee  rresp=0  MATCH
# UVM_INFO C:/Users/Asus/Downloads/tb_axi_spi_full.sv(335) @ 22141885000: uvm_test_top.env.agent.driver [DRV]   OUTPUT  : overall = PASS
# UVM_INFO C:/Users/Asus/Downloads/tb_axi_spi_full.sv(338) @ 22141885000: uvm_test_top.env.agent.driver [DRV] ==================== TRANSACTION #35  END (PASS) ====================
# 
# UVM_INFO C:/Users/Asus/Downloads/tb_axi_spi_full.sv(284) @ 22141885000: uvm_test_top.env.agent.driver [DRV] ==================== TRANSACTION #36  START ====================
# UVM_INFO C:/Users/Asus/Downloads/tb_axi_spi_full.sv(287) @ 22141885000: uvm_test_top.env.agent.driver [DRV]   INPUT   : chip=1  loc=4  wdata=0x24c0ffee
# UVM_INFO C:/Users/Asus/Downloads/tb_axi_spi_full.sv(292) @ 22141935000: uvm_test_top.env.agent.driver [DRV]   STAGE 1 : AXI WRITE          -> BRESP=0  (ACCEPTED)
# UVM_INFO C:/Users/Asus/Downloads/tb_axi_spi_full.sv(308) @ 22141965000: uvm_test_top.env.agent.driver [DRV]   STAGE 2 : TX BANK FETCH       -> dout=0x24c0ffee  expected=0x24c0ffee  MATCH
# UVM_INFO C:/Users/Asus/Downloads/tb_axi_spi_full.sv(315) @ 22145365000: uvm_test_top.env.agent.driver [DRV]   STAGE 3 : RX BANK CAPTURE     -> din=0x24c0ffee  expected=0x24c0ffee  MATCH
# UVM_INFO C:/Users/Asus/Downloads/tb_axi_spi_full.sv(322) @ 22145425000: uvm_test_top.env.agent.driver [DRV]   STAGE 4 : getRxRegStat        -> 1  (READY)
# UVM_INFO C:/Users/Asus/Downloads/tb_axi_spi_full.sv(328) @ 22145485000: uvm_test_top.env.agent.driver [DRV]   STAGE 5 : AXI READ-BACK       -> rdata=0x24c0ffee  rresp=0  MATCH
# UVM_INFO C:/Users/Asus/Downloads/tb_axi_spi_full.sv(335) @ 22145485000: uvm_test_top.env.agent.driver [DRV]   OUTPUT  : overall = PASS
# UVM_INFO C:/Users/Asus/Downloads/tb_axi_spi_full.sv(338) @ 22145485000: uvm_test_top.env.agent.driver [DRV] ==================== TRANSACTION #36  END (PASS) ====================
# 
# UVM_INFO C:/Users/Asus/Downloads/tb_axi_spi_full.sv(284) @ 22145485000: uvm_test_top.env.agent.driver [DRV] ==================== TRANSACTION #37  START ====================
# UVM_INFO C:/Users/Asus/Downloads/tb_axi_spi_full.sv(287) @ 22145485000: uvm_test_top.env.agent.driver [DRV]   INPUT   : chip=1  loc=5  wdata=0x25c0ffee
# UVM_INFO C:/Users/Asus/Downloads/tb_axi_spi_full.sv(292) @ 22145535000: uvm_test_top.env.agent.driver [DRV]   STAGE 1 : AXI WRITE          -> BRESP=0  (ACCEPTED)
# UVM_INFO C:/Users/Asus/Downloads/tb_axi_spi_full.sv(308) @ 22145565000: uvm_test_top.env.agent.driver [DRV]   STAGE 2 : TX BANK FETCH       -> dout=0x25c0ffee  expected=0x25c0ffee  MATCH
# UVM_INFO C:/Users/Asus/Downloads/tb_axi_spi_full.sv(315) @ 22148965000: uvm_test_top.env.agent.driver [DRV]   STAGE 3 : RX BANK CAPTURE     -> din=0x25c0ffee  expected=0x25c0ffee  MATCH
# UVM_INFO C:/Users/Asus/Downloads/tb_axi_spi_full.sv(322) @ 22149025000: uvm_test_top.env.agent.driver [DRV]   STAGE 4 : getRxRegStat        -> 1  (READY)
# UVM_INFO C:/Users/Asus/Downloads/tb_axi_spi_full.sv(328) @ 22149085000: uvm_test_top.env.agent.driver [DRV]   STAGE 5 : AXI READ-BACK       -> rdata=0x25c0ffee  rresp=0  MATCH
# UVM_INFO C:/Users/Asus/Downloads/tb_axi_spi_full.sv(335) @ 22149085000: uvm_test_top.env.agent.driver [DRV]   OUTPUT  : overall = PASS
# UVM_INFO C:/Users/Asus/Downloads/tb_axi_spi_full.sv(338) @ 22149085000: uvm_test_top.env.agent.driver [DRV] ==================== TRANSACTION #37  END (PASS) ====================
# 
# UVM_INFO C:/Users/Asus/Downloads/tb_axi_spi_full.sv(284) @ 22149085000: uvm_test_top.env.agent.driver [DRV] ==================== TRANSACTION #38  START ====================
# UVM_INFO C:/Users/Asus/Downloads/tb_axi_spi_full.sv(287) @ 22149085000: uvm_test_top.env.agent.driver [DRV]   INPUT   : chip=1  loc=6  wdata=0x26c0ffee
# UVM_INFO C:/Users/Asus/Downloads/tb_axi_spi_full.sv(292) @ 22149135000: uvm_test_top.env.agent.driver [DRV]   STAGE 1 : AXI WRITE          -> BRESP=0  (ACCEPTED)
# UVM_INFO C:/Users/Asus/Downloads/tb_axi_spi_full.sv(308) @ 22149165000: uvm_test_top.env.agent.driver [DRV]   STAGE 2 : TX BANK FETCH       -> dout=0x26c0ffee  expected=0x26c0ffee  MATCH
# UVM_INFO C:/Users/Asus/Downloads/tb_axi_spi_full.sv(315) @ 22152565000: uvm_test_top.env.agent.driver [DRV]   STAGE 3 : RX BANK CAPTURE     -> din=0x26c0ffee  expected=0x26c0ffee  MATCH
# UVM_INFO C:/Users/Asus/Downloads/tb_axi_spi_full.sv(322) @ 22152625000: uvm_test_top.env.agent.driver [DRV]   STAGE 4 : getRxRegStat        -> 1  (READY)
# UVM_INFO C:/Users/Asus/Downloads/tb_axi_spi_full.sv(328) @ 22152685000: uvm_test_top.env.agent.driver [DRV]   STAGE 5 : AXI READ-BACK       -> rdata=0x26c0ffee  rresp=0  MATCH
# UVM_INFO C:/Users/Asus/Downloads/tb_axi_spi_full.sv(335) @ 22152685000: uvm_test_top.env.agent.driver [DRV]   OUTPUT  : overall = PASS
# UVM_INFO C:/Users/Asus/Downloads/tb_axi_spi_full.sv(338) @ 22152685000: uvm_test_top.env.agent.driver [DRV] ==================== TRANSACTION #38  END (PASS) ====================
# 
# UVM_INFO C:/Users/Asus/Downloads/tb_axi_spi_full.sv(284) @ 22152685000: uvm_test_top.env.agent.driver [DRV] ==================== TRANSACTION #39  START ====================
# UVM_INFO C:/Users/Asus/Downloads/tb_axi_spi_full.sv(287) @ 22152685000: uvm_test_top.env.agent.driver [DRV]   INPUT   : chip=1  loc=7  wdata=0x27c0ffee
# UVM_INFO C:/Users/Asus/Downloads/tb_axi_spi_full.sv(292) @ 22152735000: uvm_test_top.env.agent.driver [DRV]   STAGE 1 : AXI WRITE          -> BRESP=0  (ACCEPTED)
# UVM_INFO C:/Users/Asus/Downloads/tb_axi_spi_full.sv(308) @ 22152765000: uvm_test_top.env.agent.driver [DRV]   STAGE 2 : TX BANK FETCH       -> dout=0x27c0ffee  expected=0x27c0ffee  MATCH
# UVM_INFO C:/Users/Asus/Downloads/tb_axi_spi_full.sv(315) @ 22156165000: uvm_test_top.env.agent.driver [DRV]   STAGE 3 : RX BANK CAPTURE     -> din=0x27c0ffee  expected=0x27c0ffee  MATCH
# UVM_INFO C:/Users/Asus/Downloads/tb_axi_spi_full.sv(322) @ 22156225000: uvm_test_top.env.agent.driver [DRV]   STAGE 4 : getRxRegStat        -> 1  (READY)
# UVM_INFO C:/Users/Asus/Downloads/tb_axi_spi_full.sv(328) @ 22156285000: uvm_test_top.env.agent.driver [DRV]   STAGE 5 : AXI READ-BACK       -> rdata=0x27c0ffee  rresp=0  MATCH
# UVM_INFO C:/Users/Asus/Downloads/tb_axi_spi_full.sv(335) @ 22156285000: uvm_test_top.env.agent.driver [DRV]   OUTPUT  : overall = PASS
# UVM_INFO C:/Users/Asus/Downloads/tb_axi_spi_full.sv(338) @ 22156285000: uvm_test_top.env.agent.driver [DRV] ==================== TRANSACTION #39  END (PASS) ====================
# 
# UVM_INFO C:/Users/Asus/Downloads/tb_axi_spi_full.sv(284) @ 22156285000: uvm_test_top.env.agent.driver [DRV] ==================== TRANSACTION #40  START ====================
# UVM_INFO C:/Users/Asus/Downloads/tb_axi_spi_full.sv(287) @ 22156285000: uvm_test_top.env.agent.driver [DRV]   INPUT   : chip=1  loc=8  wdata=0x28c0ffee
# UVM_INFO C:/Users/Asus/Downloads/tb_axi_spi_full.sv(292) @ 22156335000: uvm_test_top.env.agent.driver [DRV]   STAGE 1 : AXI WRITE          -> BRESP=0  (ACCEPTED)
# UVM_INFO C:/Users/Asus/Downloads/tb_axi_spi_full.sv(308) @ 22156365000: uvm_test_top.env.agent.driver [DRV]   STAGE 2 : TX BANK FETCH       -> dout=0x28c0ffee  expected=0x28c0ffee  MATCH
# UVM_INFO C:/Users/Asus/Downloads/tb_axi_spi_full.sv(315) @ 22159765000: uvm_test_top.env.agent.driver [DRV]   STAGE 3 : RX BANK CAPTURE     -> din=0x28c0ffee  expected=0x28c0ffee  MATCH
# UVM_INFO C:/Users/Asus/Downloads/tb_axi_spi_full.sv(322) @ 22159825000: uvm_test_top.env.agent.driver [DRV]   STAGE 4 : getRxRegStat        -> 1  (READY)
# UVM_INFO C:/Users/Asus/Downloads/tb_axi_spi_full.sv(328) @ 22159885000: uvm_test_top.env.agent.driver [DRV]   STAGE 5 : AXI READ-BACK       -> rdata=0x28c0ffee  rresp=0  MATCH
# UVM_INFO C:/Users/Asus/Downloads/tb_axi_spi_full.sv(335) @ 22159885000: uvm_test_top.env.agent.driver [DRV]   OUTPUT  : overall = PASS
# UVM_INFO C:/Users/Asus/Downloads/tb_axi_spi_full.sv(338) @ 22159885000: uvm_test_top.env.agent.driver [DRV] ==================== TRANSACTION #40  END (PASS) ====================
# 
# UVM_INFO C:/Users/Asus/Downloads/tb_axi_spi_full.sv(284) @ 22159885000: uvm_test_top.env.agent.driver [DRV] ==================== TRANSACTION #41  START ====================
# UVM_INFO C:/Users/Asus/Downloads/tb_axi_spi_full.sv(287) @ 22159885000: uvm_test_top.env.agent.driver [DRV]   INPUT   : chip=1  loc=9  wdata=0x29c0ffee
# UVM_INFO C:/Users/Asus/Downloads/tb_axi_spi_full.sv(292) @ 22159935000: uvm_test_top.env.agent.driver [DRV]   STAGE 1 : AXI WRITE          -> BRESP=0  (ACCEPTED)
# UVM_INFO C:/Users/Asus/Downloads/tb_axi_spi_full.sv(308) @ 22159965000: uvm_test_top.env.agent.driver [DRV]   STAGE 2 : TX BANK FETCH       -> dout=0x29c0ffee  expected=0x29c0ffee  MATCH
# UVM_INFO C:/Users/Asus/Downloads/tb_axi_spi_full.sv(315) @ 22163365000: uvm_test_top.env.agent.driver [DRV]   STAGE 3 : RX BANK CAPTURE     -> din=0x29c0ffee  expected=0x29c0ffee  MATCH
# UVM_INFO C:/Users/Asus/Downloads/tb_axi_spi_full.sv(322) @ 22163425000: uvm_test_top.env.agent.driver [DRV]   STAGE 4 : getRxRegStat        -> 1  (READY)
# UVM_INFO C:/Users/Asus/Downloads/tb_axi_spi_full.sv(328) @ 22163485000: uvm_test_top.env.agent.driver [DRV]   STAGE 5 : AXI READ-BACK       -> rdata=0x29c0ffee  rresp=0  MATCH
# UVM_INFO C:/Users/Asus/Downloads/tb_axi_spi_full.sv(335) @ 22163485000: uvm_test_top.env.agent.driver [DRV]   OUTPUT  : overall = PASS
# UVM_INFO C:/Users/Asus/Downloads/tb_axi_spi_full.sv(338) @ 22163485000: uvm_test_top.env.agent.driver [DRV] ==================== TRANSACTION #41  END (PASS) ====================
# 
# UVM_INFO C:/Users/Asus/Downloads/tb_axi_spi_full.sv(284) @ 22163485000: uvm_test_top.env.agent.driver [DRV] ==================== TRANSACTION #42  START ====================
# UVM_INFO C:/Users/Asus/Downloads/tb_axi_spi_full.sv(287) @ 22163485000: uvm_test_top.env.agent.driver [DRV]   INPUT   : chip=1  loc=10  wdata=0x2ac0ffee
# UVM_INFO C:/Users/Asus/Downloads/tb_axi_spi_full.sv(292) @ 22163535000: uvm_test_top.env.agent.driver [DRV]   STAGE 1 : AXI WRITE          -> BRESP=0  (ACCEPTED)
# UVM_INFO C:/Users/Asus/Downloads/tb_axi_spi_full.sv(308) @ 22163565000: uvm_test_top.env.agent.driver [DRV]   STAGE 2 : TX BANK FETCH       -> dout=0x2ac0ffee  expected=0x2ac0ffee  MATCH
# UVM_INFO C:/Users/Asus/Downloads/tb_axi_spi_full.sv(315) @ 22166965000: uvm_test_top.env.agent.driver [DRV]   STAGE 3 : RX BANK CAPTURE     -> din=0x2ac0ffee  expected=0x2ac0ffee  MATCH
# UVM_INFO C:/Users/Asus/Downloads/tb_axi_spi_full.sv(322) @ 22167025000: uvm_test_top.env.agent.driver [DRV]   STAGE 4 : getRxRegStat        -> 1  (READY)
# UVM_INFO C:/Users/Asus/Downloads/tb_axi_spi_full.sv(328) @ 22167085000: uvm_test_top.env.agent.driver [DRV]   STAGE 5 : AXI READ-BACK       -> rdata=0x2ac0ffee  rresp=0  MATCH
# UVM_INFO C:/Users/Asus/Downloads/tb_axi_spi_full.sv(335) @ 22167085000: uvm_test_top.env.agent.driver [DRV]   OUTPUT  : overall = PASS
# UVM_INFO C:/Users/Asus/Downloads/tb_axi_spi_full.sv(338) @ 22167085000: uvm_test_top.env.agent.driver [DRV] ==================== TRANSACTION #42  END (PASS) ====================
# 
# UVM_INFO C:/Users/Asus/Downloads/tb_axi_spi_full.sv(284) @ 22167085000: uvm_test_top.env.agent.driver [DRV] ==================== TRANSACTION #43  START ====================
# UVM_INFO C:/Users/Asus/Downloads/tb_axi_spi_full.sv(287) @ 22167085000: uvm_test_top.env.agent.driver [DRV]   INPUT   : chip=1  loc=11  wdata=0x2bc0ffee
# UVM_INFO C:/Users/Asus/Downloads/tb_axi_spi_full.sv(292) @ 22167135000: uvm_test_top.env.agent.driver [DRV]   STAGE 1 : AXI WRITE          -> BRESP=0  (ACCEPTED)
# UVM_INFO C:/Users/Asus/Downloads/tb_axi_spi_full.sv(308) @ 22167165000: uvm_test_top.env.agent.driver [DRV]   STAGE 2 : TX BANK FETCH       -> dout=0x2bc0ffee  expected=0x2bc0ffee  MATCH
# UVM_INFO C:/Users/Asus/Downloads/tb_axi_spi_full.sv(315) @ 22170565000: uvm_test_top.env.agent.driver [DRV]   STAGE 3 : RX BANK CAPTURE     -> din=0x2bc0ffee  expected=0x2bc0ffee  MATCH
# UVM_INFO C:/Users/Asus/Downloads/tb_axi_spi_full.sv(322) @ 22170625000: uvm_test_top.env.agent.driver [DRV]   STAGE 4 : getRxRegStat        -> 1  (READY)
# UVM_INFO C:/Users/Asus/Downloads/tb_axi_spi_full.sv(328) @ 22170685000: uvm_test_top.env.agent.driver [DRV]   STAGE 5 : AXI READ-BACK       -> rdata=0x2bc0ffee  rresp=0  MATCH
# UVM_INFO C:/Users/Asus/Downloads/tb_axi_spi_full.sv(335) @ 22170685000: uvm_test_top.env.agent.driver [DRV]   OUTPUT  : overall = PASS
# UVM_INFO C:/Users/Asus/Downloads/tb_axi_spi_full.sv(338) @ 22170685000: uvm_test_top.env.agent.driver [DRV] ==================== TRANSACTION #43  END (PASS) ====================
# 
# UVM_INFO C:/Users/Asus/Downloads/tb_axi_spi_full.sv(284) @ 22170685000: uvm_test_top.env.agent.driver [DRV] ==================== TRANSACTION #44  START ====================
# UVM_INFO C:/Users/Asus/Downloads/tb_axi_spi_full.sv(287) @ 22170685000: uvm_test_top.env.agent.driver [DRV]   INPUT   : chip=1  loc=12  wdata=0x2cc0ffee
# UVM_INFO C:/Users/Asus/Downloads/tb_axi_spi_full.sv(292) @ 22170735000: uvm_test_top.env.agent.driver [DRV]   STAGE 1 : AXI WRITE          -> BRESP=0  (ACCEPTED)
# UVM_INFO C:/Users/Asus/Downloads/tb_axi_spi_full.sv(308) @ 22170765000: uvm_test_top.env.agent.driver [DRV]   STAGE 2 : TX BANK FETCH       -> dout=0x2cc0ffee  expected=0x2cc0ffee  MATCH
# UVM_INFO C:/Users/Asus/Downloads/tb_axi_spi_full.sv(315) @ 22174165000: uvm_test_top.env.agent.driver [DRV]   STAGE 3 : RX BANK CAPTURE     -> din=0x2cc0ffee  expected=0x2cc0ffee  MATCH
# UVM_INFO C:/Users/Asus/Downloads/tb_axi_spi_full.sv(322) @ 22174225000: uvm_test_top.env.agent.driver [DRV]   STAGE 4 : getRxRegStat        -> 1  (READY)
# UVM_INFO C:/Users/Asus/Downloads/tb_axi_spi_full.sv(328) @ 22174285000: uvm_test_top.env.agent.driver [DRV]   STAGE 5 : AXI READ-BACK       -> rdata=0x2cc0ffee  rresp=0  MATCH
# UVM_INFO C:/Users/Asus/Downloads/tb_axi_spi_full.sv(335) @ 22174285000: uvm_test_top.env.agent.driver [DRV]   OUTPUT  : overall = PASS
# UVM_INFO C:/Users/Asus/Downloads/tb_axi_spi_full.sv(338) @ 22174285000: uvm_test_top.env.agent.driver [DRV] ==================== TRANSACTION #44  END (PASS) ====================
# 
# UVM_INFO C:/Users/Asus/Downloads/tb_axi_spi_full.sv(284) @ 22174285000: uvm_test_top.env.agent.driver [DRV] ==================== TRANSACTION #45  START ====================
# UVM_INFO C:/Users/Asus/Downloads/tb_axi_spi_full.sv(287) @ 22174285000: uvm_test_top.env.agent.driver [DRV]   INPUT   : chip=1  loc=13  wdata=0x2dc0ffee
# UVM_INFO C:/Users/Asus/Downloads/tb_axi_spi_full.sv(292) @ 22174335000: uvm_test_top.env.agent.driver [DRV]   STAGE 1 : AXI WRITE          -> BRESP=0  (ACCEPTED)
# UVM_INFO C:/Users/Asus/Downloads/tb_axi_spi_full.sv(308) @ 22174365000: uvm_test_top.env.agent.driver [DRV]   STAGE 2 : TX BANK FETCH       -> dout=0x2dc0ffee  expected=0x2dc0ffee  MATCH
# UVM_INFO C:/Users/Asus/Downloads/tb_axi_spi_full.sv(315) @ 22177765000: uvm_test_top.env.agent.driver [DRV]   STAGE 3 : RX BANK CAPTURE     -> din=0x2dc0ffee  expected=0x2dc0ffee  MATCH
# UVM_INFO C:/Users/Asus/Downloads/tb_axi_spi_full.sv(322) @ 22177825000: uvm_test_top.env.agent.driver [DRV]   STAGE 4 : getRxRegStat        -> 1  (READY)
# UVM_INFO C:/Users/Asus/Downloads/tb_axi_spi_full.sv(328) @ 22177885000: uvm_test_top.env.agent.driver [DRV]   STAGE 5 : AXI READ-BACK       -> rdata=0x2dc0ffee  rresp=0  MATCH
# UVM_INFO C:/Users/Asus/Downloads/tb_axi_spi_full.sv(335) @ 22177885000: uvm_test_top.env.agent.driver [DRV]   OUTPUT  : overall = PASS
# UVM_INFO C:/Users/Asus/Downloads/tb_axi_spi_full.sv(338) @ 22177885000: uvm_test_top.env.agent.driver [DRV] ==================== TRANSACTION #45  END (PASS) ====================
# 
# UVM_INFO C:/Users/Asus/Downloads/tb_axi_spi_full.sv(284) @ 22177885000: uvm_test_top.env.agent.driver [DRV] ==================== TRANSACTION #46  START ====================
# UVM_INFO C:/Users/Asus/Downloads/tb_axi_spi_full.sv(287) @ 22177885000: uvm_test_top.env.agent.driver [DRV]   INPUT   : chip=1  loc=14  wdata=0x2ec0ffee
# UVM_INFO C:/Users/Asus/Downloads/tb_axi_spi_full.sv(292) @ 22177935000: uvm_test_top.env.agent.driver [DRV]   STAGE 1 : AXI WRITE          -> BRESP=0  (ACCEPTED)
# UVM_INFO C:/Users/Asus/Downloads/tb_axi_spi_full.sv(308) @ 22177965000: uvm_test_top.env.agent.driver [DRV]   STAGE 2 : TX BANK FETCH       -> dout=0x2ec0ffee  expected=0x2ec0ffee  MATCH
# UVM_INFO C:/Users/Asus/Downloads/tb_axi_spi_full.sv(315) @ 22181365000: uvm_test_top.env.agent.driver [DRV]   STAGE 3 : RX BANK CAPTURE     -> din=0x2ec0ffee  expected=0x2ec0ffee  MATCH
# UVM_INFO C:/Users/Asus/Downloads/tb_axi_spi_full.sv(322) @ 22181425000: uvm_test_top.env.agent.driver [DRV]   STAGE 4 : getRxRegStat        -> 1  (READY)
# UVM_INFO C:/Users/Asus/Downloads/tb_axi_spi_full.sv(328) @ 22181485000: uvm_test_top.env.agent.driver [DRV]   STAGE 5 : AXI READ-BACK       -> rdata=0x2ec0ffee  rresp=0  MATCH
# UVM_INFO C:/Users/Asus/Downloads/tb_axi_spi_full.sv(335) @ 22181485000: uvm_test_top.env.agent.driver [DRV]   OUTPUT  : overall = PASS
# UVM_INFO C:/Users/Asus/Downloads/tb_axi_spi_full.sv(338) @ 22181485000: uvm_test_top.env.agent.driver [DRV] ==================== TRANSACTION #46  END (PASS) ====================
# 
# UVM_INFO C:/Users/Asus/Downloads/tb_axi_spi_full.sv(284) @ 22181485000: uvm_test_top.env.agent.driver [DRV] ==================== TRANSACTION #47  START ====================
# UVM_INFO C:/Users/Asus/Downloads/tb_axi_spi_full.sv(287) @ 22181485000: uvm_test_top.env.agent.driver [DRV]   INPUT   : chip=1  loc=15  wdata=0x2fc0ffee
# UVM_INFO C:/Users/Asus/Downloads/tb_axi_spi_full.sv(292) @ 22181535000: uvm_test_top.env.agent.driver [DRV]   STAGE 1 : AXI WRITE          -> BRESP=0  (ACCEPTED)
# UVM_INFO C:/Users/Asus/Downloads/tb_axi_spi_full.sv(308) @ 22181565000: uvm_test_top.env.agent.driver [DRV]   STAGE 2 : TX BANK FETCH       -> dout=0x2fc0ffee  expected=0x2fc0ffee  MATCH
# UVM_INFO C:/Users/Asus/Downloads/tb_axi_spi_full.sv(315) @ 22184965000: uvm_test_top.env.agent.driver [DRV]   STAGE 3 : RX BANK CAPTURE     -> din=0x2fc0ffee  expected=0x2fc0ffee  MATCH
# UVM_INFO C:/Users/Asus/Downloads/tb_axi_spi_full.sv(322) @ 22185025000: uvm_test_top.env.agent.driver [DRV]   STAGE 4 : getRxRegStat        -> 1  (READY)
# UVM_INFO C:/Users/Asus/Downloads/tb_axi_spi_full.sv(328) @ 22185085000: uvm_test_top.env.agent.driver [DRV]   STAGE 5 : AXI READ-BACK       -> rdata=0x2fc0ffee  rresp=0  MATCH
# UVM_INFO C:/Users/Asus/Downloads/tb_axi_spi_full.sv(335) @ 22185085000: uvm_test_top.env.agent.driver [DRV]   OUTPUT  : overall = PASS
# UVM_INFO C:/Users/Asus/Downloads/tb_axi_spi_full.sv(338) @ 22185085000: uvm_test_top.env.agent.driver [DRV] ==================== TRANSACTION #47  END (PASS) ====================
# 
# UVM_INFO C:/Users/Asus/Downloads/tb_axi_spi_full.sv(284) @ 22185085000: uvm_test_top.env.agent.driver [DRV] ==================== TRANSACTION #48  START ====================
# UVM_INFO C:/Users/Asus/Downloads/tb_axi_spi_full.sv(287) @ 22185085000: uvm_test_top.env.agent.driver [DRV]   INPUT   : chip=1  loc=16  wdata=0x30c0ffee
# UVM_INFO C:/Users/Asus/Downloads/tb_axi_spi_full.sv(292) @ 22185135000: uvm_test_top.env.agent.driver [DRV]   STAGE 1 : AXI WRITE          -> BRESP=0  (ACCEPTED)
# UVM_INFO C:/Users/Asus/Downloads/tb_axi_spi_full.sv(308) @ 22185165000: uvm_test_top.env.agent.driver [DRV]   STAGE 2 : TX BANK FETCH       -> dout=0x30c0ffee  expected=0x30c0ffee  MATCH
# UVM_INFO C:/Users/Asus/Downloads/tb_axi_spi_full.sv(315) @ 22188565000: uvm_test_top.env.agent.driver [DRV]   STAGE 3 : RX BANK CAPTURE     -> din=0x30c0ffee  expected=0x30c0ffee  MATCH
# UVM_INFO C:/Users/Asus/Downloads/tb_axi_spi_full.sv(322) @ 22188625000: uvm_test_top.env.agent.driver [DRV]   STAGE 4 : getRxRegStat        -> 1  (READY)
# UVM_INFO C:/Users/Asus/Downloads/tb_axi_spi_full.sv(328) @ 22188685000: uvm_test_top.env.agent.driver [DRV]   STAGE 5 : AXI READ-BACK       -> rdata=0x30c0ffee  rresp=0  MATCH
# UVM_INFO C:/Users/Asus/Downloads/tb_axi_spi_full.sv(335) @ 22188685000: uvm_test_top.env.agent.driver [DRV]   OUTPUT  : overall = PASS
# UVM_INFO C:/Users/Asus/Downloads/tb_axi_spi_full.sv(338) @ 22188685000: uvm_test_top.env.agent.driver [DRV] ==================== TRANSACTION #48  END (PASS) ====================
# 
# UVM_INFO C:/Users/Asus/Downloads/tb_axi_spi_full.sv(284) @ 22188685000: uvm_test_top.env.agent.driver [DRV] ==================== TRANSACTION #49  START ====================
# UVM_INFO C:/Users/Asus/Downloads/tb_axi_spi_full.sv(287) @ 22188685000: uvm_test_top.env.agent.driver [DRV]   INPUT   : chip=1  loc=17  wdata=0x31c0ffee
# UVM_INFO C:/Users/Asus/Downloads/tb_axi_spi_full.sv(292) @ 22188735000: uvm_test_top.env.agent.driver [DRV]   STAGE 1 : AXI WRITE          -> BRESP=0  (ACCEPTED)
# UVM_INFO C:/Users/Asus/Downloads/tb_axi_spi_full.sv(308) @ 22188765000: uvm_test_top.env.agent.driver [DRV]   STAGE 2 : TX BANK FETCH       -> dout=0x31c0ffee  expected=0x31c0ffee  MATCH
# UVM_INFO C:/Users/Asus/Downloads/tb_axi_spi_full.sv(315) @ 22192165000: uvm_test_top.env.agent.driver [DRV]   STAGE 3 : RX BANK CAPTURE     -> din=0x31c0ffee  expected=0x31c0ffee  MATCH
# UVM_INFO C:/Users/Asus/Downloads/tb_axi_spi_full.sv(322) @ 22192225000: uvm_test_top.env.agent.driver [DRV]   STAGE 4 : getRxRegStat        -> 1  (READY)
# UVM_INFO C:/Users/Asus/Downloads/tb_axi_spi_full.sv(328) @ 22192285000: uvm_test_top.env.agent.driver [DRV]   STAGE 5 : AXI READ-BACK       -> rdata=0x31c0ffee  rresp=0  MATCH
# UVM_INFO C:/Users/Asus/Downloads/tb_axi_spi_full.sv(335) @ 22192285000: uvm_test_top.env.agent.driver [DRV]   OUTPUT  : overall = PASS
# UVM_INFO C:/Users/Asus/Downloads/tb_axi_spi_full.sv(338) @ 22192285000: uvm_test_top.env.agent.driver [DRV] ==================== TRANSACTION #49  END (PASS) ====================
# 
# UVM_INFO C:/Users/Asus/Downloads/tb_axi_spi_full.sv(284) @ 22192285000: uvm_test_top.env.agent.driver [DRV] ==================== TRANSACTION #50  START ====================
# UVM_INFO C:/Users/Asus/Downloads/tb_axi_spi_full.sv(287) @ 22192285000: uvm_test_top.env.agent.driver [DRV]   INPUT   : chip=1  loc=18  wdata=0x32c0ffee
# UVM_INFO C:/Users/Asus/Downloads/tb_axi_spi_full.sv(292) @ 22192335000: uvm_test_top.env.agent.driver [DRV]   STAGE 1 : AXI WRITE          -> BRESP=0  (ACCEPTED)
# UVM_INFO C:/Users/Asus/Downloads/tb_axi_spi_full.sv(308) @ 22192365000: uvm_test_top.env.agent.driver [DRV]   STAGE 2 : TX BANK FETCH       -> dout=0x32c0ffee  expected=0x32c0ffee  MATCH
# UVM_INFO C:/Users/Asus/Downloads/tb_axi_spi_full.sv(315) @ 22195765000: uvm_test_top.env.agent.driver [DRV]   STAGE 3 : RX BANK CAPTURE     -> din=0x32c0ffee  expected=0x32c0ffee  MATCH
# UVM_INFO C:/Users/Asus/Downloads/tb_axi_spi_full.sv(322) @ 22195825000: uvm_test_top.env.agent.driver [DRV]   STAGE 4 : getRxRegStat        -> 1  (READY)
# UVM_INFO C:/Users/Asus/Downloads/tb_axi_spi_full.sv(328) @ 22195885000: uvm_test_top.env.agent.driver [DRV]   STAGE 5 : AXI READ-BACK       -> rdata=0x32c0ffee  rresp=0  MATCH
# UVM_INFO C:/Users/Asus/Downloads/tb_axi_spi_full.sv(335) @ 22195885000: uvm_test_top.env.agent.driver [DRV]   OUTPUT  : overall = PASS
# UVM_INFO C:/Users/Asus/Downloads/tb_axi_spi_full.sv(338) @ 22195885000: uvm_test_top.env.agent.driver [DRV] ==================== TRANSACTION #50  END (PASS) ====================
# 
# UVM_INFO C:/Users/Asus/Downloads/tb_axi_spi_full.sv(284) @ 22195885000: uvm_test_top.env.agent.driver [DRV] ==================== TRANSACTION #51  START ====================
# UVM_INFO C:/Users/Asus/Downloads/tb_axi_spi_full.sv(287) @ 22195885000: uvm_test_top.env.agent.driver [DRV]   INPUT   : chip=1  loc=19  wdata=0x33c0ffee
# UVM_INFO C:/Users/Asus/Downloads/tb_axi_spi_full.sv(292) @ 22195935000: uvm_test_top.env.agent.driver [DRV]   STAGE 1 : AXI WRITE          -> BRESP=0  (ACCEPTED)
# UVM_INFO C:/Users/Asus/Downloads/tb_axi_spi_full.sv(308) @ 22195965000: uvm_test_top.env.agent.driver [DRV]   STAGE 2 : TX BANK FETCH       -> dout=0x33c0ffee  expected=0x33c0ffee  MATCH
# UVM_INFO C:/Users/Asus/Downloads/tb_axi_spi_full.sv(315) @ 22199365000: uvm_test_top.env.agent.driver [DRV]   STAGE 3 : RX BANK CAPTURE     -> din=0x33c0ffee  expected=0x33c0ffee  MATCH
# UVM_INFO C:/Users/Asus/Downloads/tb_axi_spi_full.sv(322) @ 22199425000: uvm_test_top.env.agent.driver [DRV]   STAGE 4 : getRxRegStat        -> 1  (READY)
# UVM_INFO C:/Users/Asus/Downloads/tb_axi_spi_full.sv(328) @ 22199485000: uvm_test_top.env.agent.driver [DRV]   STAGE 5 : AXI READ-BACK       -> rdata=0x33c0ffee  rresp=0  MATCH
# UVM_INFO C:/Users/Asus/Downloads/tb_axi_spi_full.sv(335) @ 22199485000: uvm_test_top.env.agent.driver [DRV]   OUTPUT  : overall = PASS
# UVM_INFO C:/Users/Asus/Downloads/tb_axi_spi_full.sv(338) @ 22199485000: uvm_test_top.env.agent.driver [DRV] ==================== TRANSACTION #51  END (PASS) ====================
# 
# UVM_INFO C:/Users/Asus/Downloads/tb_axi_spi_full.sv(284) @ 22199485000: uvm_test_top.env.agent.driver [DRV] ==================== TRANSACTION #52  START ====================
# UVM_INFO C:/Users/Asus/Downloads/tb_axi_spi_full.sv(287) @ 22199485000: uvm_test_top.env.agent.driver [DRV]   INPUT   : chip=1  loc=20  wdata=0x34c0ffee
# UVM_INFO C:/Users/Asus/Downloads/tb_axi_spi_full.sv(292) @ 22199535000: uvm_test_top.env.agent.driver [DRV]   STAGE 1 : AXI WRITE          -> BRESP=0  (ACCEPTED)
# UVM_INFO C:/Users/Asus/Downloads/tb_axi_spi_full.sv(308) @ 22199565000: uvm_test_top.env.agent.driver [DRV]   STAGE 2 : TX BANK FETCH       -> dout=0x34c0ffee  expected=0x34c0ffee  MATCH
# UVM_INFO C:/Users/Asus/Downloads/tb_axi_spi_full.sv(315) @ 22202965000: uvm_test_top.env.agent.driver [DRV]   STAGE 3 : RX BANK CAPTURE     -> din=0x34c0ffee  expected=0x34c0ffee  MATCH
# UVM_INFO C:/Users/Asus/Downloads/tb_axi_spi_full.sv(322) @ 22203025000: uvm_test_top.env.agent.driver [DRV]   STAGE 4 : getRxRegStat        -> 1  (READY)
# UVM_INFO C:/Users/Asus/Downloads/tb_axi_spi_full.sv(328) @ 22203085000: uvm_test_top.env.agent.driver [DRV]   STAGE 5 : AXI READ-BACK       -> rdata=0x34c0ffee  rresp=0  MATCH
# UVM_INFO C:/Users/Asus/Downloads/tb_axi_spi_full.sv(335) @ 22203085000: uvm_test_top.env.agent.driver [DRV]   OUTPUT  : overall = PASS
# UVM_INFO C:/Users/Asus/Downloads/tb_axi_spi_full.sv(338) @ 22203085000: uvm_test_top.env.agent.driver [DRV] ==================== TRANSACTION #52  END (PASS) ====================
# 
# UVM_INFO C:/Users/Asus/Downloads/tb_axi_spi_full.sv(284) @ 22203085000: uvm_test_top.env.agent.driver [DRV] ==================== TRANSACTION #53  START ====================
# UVM_INFO C:/Users/Asus/Downloads/tb_axi_spi_full.sv(287) @ 22203085000: uvm_test_top.env.agent.driver [DRV]   INPUT   : chip=1  loc=21  wdata=0x35c0ffee
# UVM_INFO C:/Users/Asus/Downloads/tb_axi_spi_full.sv(292) @ 22203135000: uvm_test_top.env.agent.driver [DRV]   STAGE 1 : AXI WRITE          -> BRESP=0  (ACCEPTED)
# UVM_INFO C:/Users/Asus/Downloads/tb_axi_spi_full.sv(308) @ 22203165000: uvm_test_top.env.agent.driver [DRV]   STAGE 2 : TX BANK FETCH       -> dout=0x35c0ffee  expected=0x35c0ffee  MATCH
# UVM_INFO C:/Users/Asus/Downloads/tb_axi_spi_full.sv(315) @ 22206565000: uvm_test_top.env.agent.driver [DRV]   STAGE 3 : RX BANK CAPTURE     -> din=0x35c0ffee  expected=0x35c0ffee  MATCH
# UVM_INFO C:/Users/Asus/Downloads/tb_axi_spi_full.sv(322) @ 22206625000: uvm_test_top.env.agent.driver [DRV]   STAGE 4 : getRxRegStat        -> 1  (READY)
# UVM_INFO C:/Users/Asus/Downloads/tb_axi_spi_full.sv(328) @ 22206685000: uvm_test_top.env.agent.driver [DRV]   STAGE 5 : AXI READ-BACK       -> rdata=0x35c0ffee  rresp=0  MATCH
# UVM_INFO C:/Users/Asus/Downloads/tb_axi_spi_full.sv(335) @ 22206685000: uvm_test_top.env.agent.driver [DRV]   OUTPUT  : overall = PASS
# UVM_INFO C:/Users/Asus/Downloads/tb_axi_spi_full.sv(338) @ 22206685000: uvm_test_top.env.agent.driver [DRV] ==================== TRANSACTION #53  END (PASS) ====================
# 
# UVM_INFO C:/Users/Asus/Downloads/tb_axi_spi_full.sv(284) @ 22206685000: uvm_test_top.env.agent.driver [DRV] ==================== TRANSACTION #54  START ====================
# UVM_INFO C:/Users/Asus/Downloads/tb_axi_spi_full.sv(287) @ 22206685000: uvm_test_top.env.agent.driver [DRV]   INPUT   : chip=1  loc=22  wdata=0x36c0ffee
# UVM_INFO C:/Users/Asus/Downloads/tb_axi_spi_full.sv(292) @ 22206735000: uvm_test_top.env.agent.driver [DRV]   STAGE 1 : AXI WRITE          -> BRESP=0  (ACCEPTED)
# UVM_INFO C:/Users/Asus/Downloads/tb_axi_spi_full.sv(308) @ 22206765000: uvm_test_top.env.agent.driver [DRV]   STAGE 2 : TX BANK FETCH       -> dout=0x36c0ffee  expected=0x36c0ffee  MATCH
# UVM_INFO C:/Users/Asus/Downloads/tb_axi_spi_full.sv(315) @ 22210165000: uvm_test_top.env.agent.driver [DRV]   STAGE 3 : RX BANK CAPTURE     -> din=0x36c0ffee  expected=0x36c0ffee  MATCH
# UVM_INFO C:/Users/Asus/Downloads/tb_axi_spi_full.sv(322) @ 22210225000: uvm_test_top.env.agent.driver [DRV]   STAGE 4 : getRxRegStat        -> 1  (READY)
# UVM_INFO C:/Users/Asus/Downloads/tb_axi_spi_full.sv(328) @ 22210285000: uvm_test_top.env.agent.driver [DRV]   STAGE 5 : AXI READ-BACK       -> rdata=0x36c0ffee  rresp=0  MATCH
# UVM_INFO C:/Users/Asus/Downloads/tb_axi_spi_full.sv(335) @ 22210285000: uvm_test_top.env.agent.driver [DRV]   OUTPUT  : overall = PASS
# UVM_INFO C:/Users/Asus/Downloads/tb_axi_spi_full.sv(338) @ 22210285000: uvm_test_top.env.agent.driver [DRV] ==================== TRANSACTION #54  END (PASS) ====================
# 
# UVM_INFO C:/Users/Asus/Downloads/tb_axi_spi_full.sv(284) @ 22210285000: uvm_test_top.env.agent.driver [DRV] ==================== TRANSACTION #55  START ====================
# UVM_INFO C:/Users/Asus/Downloads/tb_axi_spi_full.sv(287) @ 22210285000: uvm_test_top.env.agent.driver [DRV]   INPUT   : chip=1  loc=23  wdata=0x37c0ffee
# UVM_INFO C:/Users/Asus/Downloads/tb_axi_spi_full.sv(292) @ 22210335000: uvm_test_top.env.agent.driver [DRV]   STAGE 1 : AXI WRITE          -> BRESP=0  (ACCEPTED)
# UVM_INFO C:/Users/Asus/Downloads/tb_axi_spi_full.sv(308) @ 22210365000: uvm_test_top.env.agent.driver [DRV]   STAGE 2 : TX BANK FETCH       -> dout=0x37c0ffee  expected=0x37c0ffee  MATCH
# UVM_INFO C:/Users/Asus/Downloads/tb_axi_spi_full.sv(315) @ 22213765000: uvm_test_top.env.agent.driver [DRV]   STAGE 3 : RX BANK CAPTURE     -> din=0x37c0ffee  expected=0x37c0ffee  MATCH
# UVM_INFO C:/Users/Asus/Downloads/tb_axi_spi_full.sv(322) @ 22213825000: uvm_test_top.env.agent.driver [DRV]   STAGE 4 : getRxRegStat        -> 1  (READY)
# UVM_INFO C:/Users/Asus/Downloads/tb_axi_spi_full.sv(328) @ 22213885000: uvm_test_top.env.agent.driver [DRV]   STAGE 5 : AXI READ-BACK       -> rdata=0x37c0ffee  rresp=0  MATCH
# UVM_INFO C:/Users/Asus/Downloads/tb_axi_spi_full.sv(335) @ 22213885000: uvm_test_top.env.agent.driver [DRV]   OUTPUT  : overall = PASS
# UVM_INFO C:/Users/Asus/Downloads/tb_axi_spi_full.sv(338) @ 22213885000: uvm_test_top.env.agent.driver [DRV] ==================== TRANSACTION #55  END (PASS) ====================
# 
# UVM_INFO C:/Users/Asus/Downloads/tb_axi_spi_full.sv(284) @ 22213885000: uvm_test_top.env.agent.driver [DRV] ==================== TRANSACTION #56  START ====================
# UVM_INFO C:/Users/Asus/Downloads/tb_axi_spi_full.sv(287) @ 22213885000: uvm_test_top.env.agent.driver [DRV]   INPUT   : chip=1  loc=24  wdata=0x38c0ffee
# UVM_INFO C:/Users/Asus/Downloads/tb_axi_spi_full.sv(292) @ 22213935000: uvm_test_top.env.agent.driver [DRV]   STAGE 1 : AXI WRITE          -> BRESP=0  (ACCEPTED)
# UVM_INFO C:/Users/Asus/Downloads/tb_axi_spi_full.sv(308) @ 22213965000: uvm_test_top.env.agent.driver [DRV]   STAGE 2 : TX BANK FETCH       -> dout=0x38c0ffee  expected=0x38c0ffee  MATCH
# UVM_INFO C:/Users/Asus/Downloads/tb_axi_spi_full.sv(315) @ 22217365000: uvm_test_top.env.agent.driver [DRV]   STAGE 3 : RX BANK CAPTURE     -> din=0x38c0ffee  expected=0x38c0ffee  MATCH
# UVM_INFO C:/Users/Asus/Downloads/tb_axi_spi_full.sv(322) @ 22217425000: uvm_test_top.env.agent.driver [DRV]   STAGE 4 : getRxRegStat        -> 1  (READY)
# UVM_INFO C:/Users/Asus/Downloads/tb_axi_spi_full.sv(328) @ 22217485000: uvm_test_top.env.agent.driver [DRV]   STAGE 5 : AXI READ-BACK       -> rdata=0x38c0ffee  rresp=0  MATCH
# UVM_INFO C:/Users/Asus/Downloads/tb_axi_spi_full.sv(335) @ 22217485000: uvm_test_top.env.agent.driver [DRV]   OUTPUT  : overall = PASS
# UVM_INFO C:/Users/Asus/Downloads/tb_axi_spi_full.sv(338) @ 22217485000: uvm_test_top.env.agent.driver [DRV] ==================== TRANSACTION #56  END (PASS) ====================
# 
# UVM_INFO C:/Users/Asus/Downloads/tb_axi_spi_full.sv(284) @ 22217485000: uvm_test_top.env.agent.driver [DRV] ==================== TRANSACTION #57  START ====================
# UVM_INFO C:/Users/Asus/Downloads/tb_axi_spi_full.sv(287) @ 22217485000: uvm_test_top.env.agent.driver [DRV]   INPUT   : chip=1  loc=25  wdata=0x39c0ffee
# UVM_INFO C:/Users/Asus/Downloads/tb_axi_spi_full.sv(292) @ 22217535000: uvm_test_top.env.agent.driver [DRV]   STAGE 1 : AXI WRITE          -> BRESP=0  (ACCEPTED)
# UVM_INFO C:/Users/Asus/Downloads/tb_axi_spi_full.sv(308) @ 22217565000: uvm_test_top.env.agent.driver [DRV]   STAGE 2 : TX BANK FETCH       -> dout=0x39c0ffee  expected=0x39c0ffee  MATCH
# UVM_INFO C:/Users/Asus/Downloads/tb_axi_spi_full.sv(315) @ 22220965000: uvm_test_top.env.agent.driver [DRV]   STAGE 3 : RX BANK CAPTURE     -> din=0x39c0ffee  expected=0x39c0ffee  MATCH
# UVM_INFO C:/Users/Asus/Downloads/tb_axi_spi_full.sv(322) @ 22221025000: uvm_test_top.env.agent.driver [DRV]   STAGE 4 : getRxRegStat        -> 1  (READY)
# UVM_INFO C:/Users/Asus/Downloads/tb_axi_spi_full.sv(328) @ 22221085000: uvm_test_top.env.agent.driver [DRV]   STAGE 5 : AXI READ-BACK       -> rdata=0x39c0ffee  rresp=0  MATCH
# UVM_INFO C:/Users/Asus/Downloads/tb_axi_spi_full.sv(335) @ 22221085000: uvm_test_top.env.agent.driver [DRV]   OUTPUT  : overall = PASS
# UVM_INFO C:/Users/Asus/Downloads/tb_axi_spi_full.sv(338) @ 22221085000: uvm_test_top.env.agent.driver [DRV] ==================== TRANSACTION #57  END (PASS) ====================
# 
# UVM_INFO C:/Users/Asus/Downloads/tb_axi_spi_full.sv(284) @ 22221085000: uvm_test_top.env.agent.driver [DRV] ==================== TRANSACTION #58  START ====================
# UVM_INFO C:/Users/Asus/Downloads/tb_axi_spi_full.sv(287) @ 22221085000: uvm_test_top.env.agent.driver [DRV]   INPUT   : chip=1  loc=26  wdata=0x3ac0ffee
# UVM_INFO C:/Users/Asus/Downloads/tb_axi_spi_full.sv(292) @ 22221135000: uvm_test_top.env.agent.driver [DRV]   STAGE 1 : AXI WRITE          -> BRESP=0  (ACCEPTED)
# UVM_INFO C:/Users/Asus/Downloads/tb_axi_spi_full.sv(308) @ 22221165000: uvm_test_top.env.agent.driver [DRV]   STAGE 2 : TX BANK FETCH       -> dout=0x3ac0ffee  expected=0x3ac0ffee  MATCH
# UVM_INFO C:/Users/Asus/Downloads/tb_axi_spi_full.sv(315) @ 22224565000: uvm_test_top.env.agent.driver [DRV]   STAGE 3 : RX BANK CAPTURE     -> din=0x3ac0ffee  expected=0x3ac0ffee  MATCH
# UVM_INFO C:/Users/Asus/Downloads/tb_axi_spi_full.sv(322) @ 22224625000: uvm_test_top.env.agent.driver [DRV]   STAGE 4 : getRxRegStat        -> 1  (READY)
# UVM_INFO C:/Users/Asus/Downloads/tb_axi_spi_full.sv(328) @ 22224685000: uvm_test_top.env.agent.driver [DRV]   STAGE 5 : AXI READ-BACK       -> rdata=0x3ac0ffee  rresp=0  MATCH
# UVM_INFO C:/Users/Asus/Downloads/tb_axi_spi_full.sv(335) @ 22224685000: uvm_test_top.env.agent.driver [DRV]   OUTPUT  : overall = PASS
# UVM_INFO C:/Users/Asus/Downloads/tb_axi_spi_full.sv(338) @ 22224685000: uvm_test_top.env.agent.driver [DRV] ==================== TRANSACTION #58  END (PASS) ====================
# 
# UVM_INFO C:/Users/Asus/Downloads/tb_axi_spi_full.sv(284) @ 22224685000: uvm_test_top.env.agent.driver [DRV] ==================== TRANSACTION #59  START ====================
# UVM_INFO C:/Users/Asus/Downloads/tb_axi_spi_full.sv(287) @ 22224685000: uvm_test_top.env.agent.driver [DRV]   INPUT   : chip=1  loc=27  wdata=0x3bc0ffee
# UVM_INFO C:/Users/Asus/Downloads/tb_axi_spi_full.sv(292) @ 22224735000: uvm_test_top.env.agent.driver [DRV]   STAGE 1 : AXI WRITE          -> BRESP=0  (ACCEPTED)
# UVM_INFO C:/Users/Asus/Downloads/tb_axi_spi_full.sv(308) @ 22224765000: uvm_test_top.env.agent.driver [DRV]   STAGE 2 : TX BANK FETCH       -> dout=0x3bc0ffee  expected=0x3bc0ffee  MATCH
# UVM_INFO C:/Users/Asus/Downloads/tb_axi_spi_full.sv(315) @ 22228165000: uvm_test_top.env.agent.driver [DRV]   STAGE 3 : RX BANK CAPTURE     -> din=0x3bc0ffee  expected=0x3bc0ffee  MATCH
# UVM_INFO C:/Users/Asus/Downloads/tb_axi_spi_full.sv(322) @ 22228225000: uvm_test_top.env.agent.driver [DRV]   STAGE 4 : getRxRegStat        -> 1  (READY)
# UVM_INFO C:/Users/Asus/Downloads/tb_axi_spi_full.sv(328) @ 22228285000: uvm_test_top.env.agent.driver [DRV]   STAGE 5 : AXI READ-BACK       -> rdata=0x3bc0ffee  rresp=0  MATCH
# UVM_INFO C:/Users/Asus/Downloads/tb_axi_spi_full.sv(335) @ 22228285000: uvm_test_top.env.agent.driver [DRV]   OUTPUT  : overall = PASS
# UVM_INFO C:/Users/Asus/Downloads/tb_axi_spi_full.sv(338) @ 22228285000: uvm_test_top.env.agent.driver [DRV] ==================== TRANSACTION #59  END (PASS) ====================
# 
# UVM_INFO C:/Users/Asus/Downloads/tb_axi_spi_full.sv(284) @ 22228285000: uvm_test_top.env.agent.driver [DRV] ==================== TRANSACTION #60  START ====================
